!Keysight Technologies,E5080B,MY59100652,A.14.10.03
!Date: Wednesday, May 25, 2022 15:53:05
!Correction: S11(Off) 
!S21(Off) 
!S12(Off) 
!S22(Off) 
!S2P File: Measurement: :
# Hz S  RI   R 50
100000000 0.046826601 0.068377987 0.52183008 0.80676222 0.52164835 0.80675292 0.022325885 0.058484923
120000000 -0.044862024 0.041021433 0.95989054 -0.052307755 0.95930707 -0.051428959 -0.038635667 0.019380426
140000000 -0.044021055 0.1254092 0.42348754 -0.85773122 0.42390212 -0.85792357 -0.06579832 0.084423751
160000000 -0.030689657 0.045470715 -0.53126234 -0.79149055 -0.53026956 -0.79040718 -0.033511009 0.043455113
180000000 -0.14758535 0.091385297 -0.95029122 0.072787575 -0.9505251 0.070036747 -0.10123594 0.046523288
200000000 -0.024894819 0.14473166 -0.40258837 0.85041583 -0.40319344 0.85241663 -0.027705528 0.079435132
220000000 -0.04067551 -0.034591842 0.53411639 0.7791037 0.53432775 0.77814204 -0.016152889 -0.065287173
240000000 -0.16350603 0.02124493 0.94167393 -0.080873229 0.94142443 -0.079864621 -0.12796512 -0.037468012
260000000 -0.059714124 0.014250591 0.39596769 -0.85534561 0.39607275 -0.85448927 -0.038441524 -0.019087408
280000000 -0.15104869 -0.077832654 -0.55187923 -0.7668469 -0.54923272 -0.76756841 -0.082126059 -0.10007952
300000000 -0.12922092 0.054221358 -0.92633671 0.098930396 -0.92781317 0.097816311 -0.070797727 0.018343695
320000000 0.027703388 -0.049400155 -0.38461584 0.84916312 -0.3835611 0.84871978 0.10220137 -0.049829427
340000000 -0.059419017 -0.14052626 0.55202597 0.75833958 0.54969215 0.75696212 0.027830122 -0.1631428
360000000 -0.019214431 -0.088267528 0.93036914 -0.10437372 0.92862421 -0.10201262 0.026754601 -0.074179664
380000000 -0.013533405 -0.17521101 0.3661969 -0.8617453 0.36823729 -0.85946488 0.075992405 -0.1250962
400000000 -0.068513408 -0.075329706 -0.56038326 -0.73681855 -0.55872625 -0.73800224 -0.01369022 -0.051882721
420000000 0.095134847 -0.022428831 -0.91892529 0.11271857 -0.91786188 0.11276205 0.12482342 0.080245115
440000000 0.13340659 -0.11401548 -0.35833579 0.85787624 -0.35748798 0.8538416 0.21166325 -0.02344355
460000000 0.14504941 -0.091486491 0.56931919 0.73378974 0.56432843 0.73346788 0.14637928 -0.017109586
480000000 0.15903474 -0.14950648 0.91284055 -0.13338199 0.91254878 -0.13005188 0.16507296 -0.011930464
500000000 0.046740171 -0.083062686 0.3400059 -0.84954035 0.34096903 -0.84896272 0.047101595 -0.013477932
520000000 0.11998358 0.068026833 -0.5679183 -0.72253108 -0.56762946 -0.72089297 0.013642617 0.16404013
540000000 0.18843372 0.057324275 -0.91007137 0.13840815 -0.90536684 0.1381254 0.12574783 0.19294116
560000000 0.20957243 0.10365005 -0.3249872 0.8580724 -0.32698247 0.85277003 0.11326584 0.15070255
580000000 0.2693713 0.032887507 0.57754892 0.69690824 0.57545751 0.69973791 0.12071969 0.11993232
600000000 0.1006896 -0.019381853 0.88694215 -0.14166959 0.88820857 -0.14303289 0.017874802 0.0095622484
620000000 0.014842723 0.15468749 0.32533759 -0.84641355 0.32203302 -0.84626377 -0.15615413 0.088556387
640000000 0.066384099 0.20536782 -0.58035338 -0.70118535 -0.57864493 -0.69710046 -0.11967337 0.19260427
660000000 0.03455225 0.25105873 -0.89243883 0.16251253 -0.88956368 0.1587351 -0.087899707 0.16164915
680000000 0.12726748 0.26652116 -0.29503906 0.84366947 -0.29949588 0.8452099 -0.043688349 0.13815966
700000000 0.089857854 0.094805896 0.57175523 0.67880774 0.57682401 0.68049026 -0.0096860612 -0.0243294
720000000 -0.10575218 0.089118354 0.88292879 -0.15598142 0.880813 -0.16127622 -0.17214017 -0.13080646
740000000 -0.1597576 0.163763 0.29851642 -0.848948 0.29630527 -0.84452504 -0.24283496 -0.04480077
760000000 -0.1995647 0.19755197 -0.59182984 -0.67371827 -0.58656859 -0.67563343 -0.19425587 -0.021371251
780000000 -0.13959488 0.2503399 -0.86789817 0.17671633 -0.87287956 0.17273575 -0.13373874 0.0057301917
800000000 -0.05390659 0.12041197 -0.28713095 0.83662665 -0.28796199 0.84223074 0.022147339 -0.051168248
820000000 -0.14065872 -0.012924185 0.5887751 0.67046416 0.59101123 0.66818249 0.033986174 -0.22418891
840000000 -0.20827886 -0.045106269 0.87424833 -0.1841456 0.86997551 -0.18128963 -0.051702842 -0.23487982
860000000 -0.28185946 -0.066674873 0.26656523 -0.84686601 0.27386823 -0.8435089 -0.047383402 -0.18599446
880000000 -0.28452569 0.027494557 -0.59216642 -0.64616007 -0.59164536 -0.65505177 -0.038949247 -0.10287822
900000000 -0.12124376 0.022059841 -0.8589142 0.18258682 -0.86547732 0.18540381 0.1049701 0.0099316882
920000000 -0.048849743 -0.11567562 -0.27017957 0.84423321 -0.26449451 0.84407657 0.26348564 -0.075755879
940000000 -0.038348291 -0.20842077 0.6042031 0.64972514 0.59674203 0.64568615 0.21874712 -0.1567909
960000000 -0.086199515 -0.29694158 0.85493785 -0.20599075 0.85539109 -0.1959563 0.1678151 -0.12325459
980000000 -0.16968787 -0.21372999 0.24984518 -0.83100277 0.25649321 -0.83471882 0.091931187 -0.071269326
1000000000 -0.043262791 -0.080786377 -0.59190536 -0.64147782 -0.59706992 -0.64256275 0.050520431 0.11081445
1020000000 0.10655247 -0.11438788 -0.85884684 0.20004056 -0.85288209 0.20533796 0.18931064 0.21957383
1040000000 0.18178847 -0.14457846 -0.24547075 0.84659177 -0.24349061 0.83592492 0.24166049 0.14729631
1060000000 0.23933676 -0.22658303 0.61067754 0.62299669 0.60231483 0.62638199 0.17927696 0.10981194
1080000000 0.13035256 -0.25499728 0.83545697 -0.20995975 0.84152848 -0.20966472 0.081604384 0.078211769
1100000000 0.080980532 -0.087531842 0.24434753 -0.83168966 0.23550375 -0.83759344 -0.087958336 0.14133961
1120000000 0.16612495 0.033281177 -0.60798347 -0.62735623 -0.61082876 -0.6126895 -0.10600256 0.30418354
1140000000 0.24938871 0.11242756 -0.84264833 0.22293648 -0.82846385 0.22087686 -0.016704392 0.30878282
1160000000 0.37381858 0.092353597 -0.21752678 0.83087516 -0.22329526 0.82729453 -0.0024141322 0.22479962
1180000000 0.30852318 -0.026696414 0.59732181 0.60422271 0.6060822 0.60759258 -0.024332885 0.10417795
1200000000 0.13627009 0.046549868 0.83166778 -0.21265192 0.83211571 -0.22846052 -0.16508275 -0.019725261
1220000000 0.085711978 0.17928752 0.22295889 -0.83494973 0.20566715 -0.83256668 -0.31818554 0.032495666
1240000000 0.056155473 0.30933678 -0.61709541 -0.59708959 -0.61017865 -0.58852994 -0.29030117 0.12041489
1260000000 0.17108205 0.402329 -0.80801952 0.23429246 -0.81579357 0.22979186 -0.18843792 0.10754342
1280000000 0.22506896 0.25329983 -0.21437718 0.80952263 -0.21198738 0.82798892 -0.076078467 0.012340496
1300000000 0.057106622 0.16855122 0.60251302 0.60043114 0.62305892 0.59640551 -0.041147936 -0.17310622
1320000000 -0.049849521 0.18031357 0.82063186 -0.23570798 0.81621623 -0.25316519 -0.15285645 -0.27912015
1340000000 -0.21389623 0.19316496 0.18992341 -0.82364708 0.18907502 -0.81903768 -0.22073063 -0.20537856
1360000000 -0.24588668 0.37761888 -0.60178626 -0.56356621 -0.60763198 -0.58262944 -0.13991198 -0.10330973
1380000000 -0.06273479 0.33701402 -0.79675287 0.22055276 -0.8198964 0.2361261 0.016231049 -0.069833741
1400000000 -0.10077628 0.12834133 -0.20866716 0.82049954 -0.19717014 0.83966923 0.17508657 -0.13651049
1420000000 -0.17981951 0.066053942 0.62046671 0.5818789 0.63266408 0.57625812 0.20330462 -0.2627221
1440000000 -0.25898147 -0.065822519 0.80383325 -0.26166534 0.80482399 -0.25572687 0.12578118 -0.2768335
1460000000 -0.44019404 -0.010817085 0.1656801 -0.8045103 0.18673408 -0.81940389 0.065537177 -0.18723525
1480000000 -0.31896573 0.13192289 -0.59413195 -0.55989569 -0.61522257 -0.57945836 0.066601969 -0.013989692
1500000000 -0.15216966 -0.012872413 -0.80495876 0.23919591 -0.81553423 0.25100526 0.22218587 0.11251016
1520000000 -0.1626837 -0.11550814 -0.18058807 0.8269282 -0.18198758 0.82828993 0.31862628 0.038266532
1540000000 -0.075043976 -0.21691206 0.63555568 0.55759186 0.62322921 0.57023203 0.24144335 0.00026181791
1560000000 -0.18168007 -0.3797251 0.77712971 -0.27612087 0.80227059 -0.2561658 0.15413983 0.017885748
1580000000 -0.28343049 -0.22915967 0.16825671 -0.79308921 0.18012221 -0.81933069 -0.0052014776 0.086369514
1600000000 -0.087589711 -0.11660518 -0.61056828 -0.5656777 -0.62006819 -0.56439459 -0.048175108 0.29827937
1620000000 0.038909979 -0.19212374 -0.8026647 0.26315525 -0.79692441 0.25353226 0.074907146 0.32948962
1640000000 0.12442353 -0.20420898 -0.16180411 0.83014119 -0.17764758 0.82159615 0.037137628 0.2339581
1660000000 0.18977742 -0.31169108 0.6376524 0.53849703 0.62801313 0.55663067 -0.011814499 0.20334643
1680000000 0.072491542 -0.3221072 0.77521086 -0.2688224 0.78871059 -0.27116454 -0.11205287 0.070640497
1700000000 0.046830136 -0.14979486 0.16886167 -0.81168199 0.15049934 -0.80595243 -0.34406224 0.11771294
1720000000 0.13828282 -0.017866487 -0.62912011 -0.55674642 -0.60616827 -0.53719234 -0.29968446 0.26964465
1740000000 0.26096407 0.054073181 -0.79631644 0.27585164 -0.78362185 0.25654829 -0.19316779 0.16282995
1760000000 0.34431148 0.0033306153 -0.15246835 0.82202375 -0.15756242 0.81293696 -0.22707659 0.079741023
1780000000 0.26329362 -0.02902782 0.6304481 0.54442209 0.63095367 0.53650397 -0.15416582 -0.017140619
1800000000 0.17647545 0.038411595 0.78900707 -0.27523607 0.76381671 -0.29057857 -0.24901812 -0.21542259
1820000000 0.072051339 0.13182475 0.15295176 -0.81986141 0.13705809 -0.78394133 -0.38395211 -0.13465771
1840000000 0.055693299 0.3361626 -0.63192302 -0.53700018 -0.60912353 -0.53239858 -0.24778877 -0.050228715
1860000000 0.19995385 0.35946554 -0.77689052 0.27186868 -0.77454889 0.27629316 -0.14382879 -0.12492327
1880000000 0.13246778 0.2352954 -0.15857632 0.81300217 -0.14022422 0.81328934 -0.052427392 -0.12936004
1900000000 0.021160193 0.2623111 0.63273835 0.54055434 0.64324611 0.51402217 0.076412581 -0.25637838
1920000000 -0.05655833 0.19951157 0.77592516 -0.2846117 0.74906319 -0.29259154 -0.021157518 -0.34727442
1940000000 -0.27680421 0.2627036 0.13545893 -0.79990745 0.13994855 -0.79646397 -0.060127825 -0.19733164
1960000000 -0.22149184 0.43516281 -0.60844761 -0.52233058 -0.63459206 -0.52784359 0.05785716 -0.09497495
1980000000 -0.11924402 0.29003158 -0.77056259 0.26376542 -0.77656376 0.29583097 0.13285793 -0.033283498
2000000000 -0.23719814 0.19526723 -0.14695482 0.80610871 -0.12065889 0.8231377 0.26592344 0.021829141
2020000000 -0.21715677 0.13534109 0.63014168 0.51881909 0.64565259 0.504861 0.31463492 -0.067794241
2040000000 -0.35689247 -0.035357919 0.74334371 -0.2902253 0.76197988 -0.29431298 0.17794763 -0.057555798
2060000000 -0.49016497 0.089673638 0.13552037 -0.77101779 0.1306425 -0.81706321 0.10229335 0.095854148
2080000000 -0.30700713 0.11875246 -0.6068123 -0.52240229 -0.65037197 -0.52019811 0.096772283 0.22403373
2100000000 -0.27133095 -0.05342716 -0.75854981 0.28191578 -0.77185374 0.30922776 0.12757093 0.3284803
2120000000 -0.23611331 -0.074011534 -0.12306018 0.79856867 -0.11539727 0.81577766 0.18377043 0.31829968
2140000000 -0.14809673 -0.25965744 0.63048297 0.48454317 0.64264321 0.50871491 0.11971278 0.22532937
2160000000 -0.30196679 -0.34288493 0.71838856 -0.28518844 0.76271385 -0.30036658 -0.042956475 0.18847857
2180000000 -0.27540389 -0.1952053 0.13208824 -0.77585018 0.11893648 -0.80898005 -0.20171715 0.25212809
2200000000 -0.11186693 -0.21344936 -0.62616622 -0.50139463 -0.63665652 -0.50537962 -0.22642682 0.35068721
2220000000 -0.048763663 -0.22731243 -0.74350047 0.30270475 -0.75711024 0.29601523 -0.17682095 0.31123072
2240000000 0.10125954 -0.25549233 -0.09450005 0.79343414 -0.11885055 0.80468595 -0.19587627 0.2153616
2260000000 0.11076474 -0.37716356 0.62636155 0.46862516 0.63854843 0.49900076 -0.1985586 0.10106977
2280000000 0.042111665 -0.3154262 0.72751766 -0.29827812 0.7393319 -0.30548784 -0.3036142 -0.061345659
2300000000 0.093266763 -0.2055372 0.10278643 -0.79144233 0.11105792 -0.7792117 -0.43575925 -0.028202996
2320000000 0.15267949 -0.11438524 -0.64285648 -0.48063478 -0.61954129 -0.49711171 -0.33795449 0.019494338
2340000000 0.27875417 -0.041324705 -0.73113734 0.32558927 -0.74225694 0.2985732 -0.25207442 -0.08668182
2360000000 0.342684 -0.094051771 -0.083291031 0.78658146 -0.10369013 0.79172021 -0.18567079 -0.1281555
2380000000 0.27587822 -0.089549467 0.63821858 0.47267655 0.63408089 0.46968275 -0.063846126 -0.27644527
2400000000 0.21372452 -0.020915078 0.73354882 -0.31963348 0.71105087 -0.30073988 -0.15232645 -0.3998912
2420000000 0.14043495 0.097044826 0.086680755 -0.80070174 0.10842978 -0.77510643 -0.16536276 -0.27669385
2440000000 0.1756101 0.24096426 -0.65265018 -0.46915808 -0.63266236 -0.47793639 -0.006886689 -0.24423428
2460000000 0.21912344 0.23479766 -0.73145378 0.32703263 -0.72567779 0.31751764 0.050682496 -0.23796573
2480000000 0.1566453 0.23258273 -0.081981353 0.80052394 -0.073916487 0.78487754 0.19784467 -0.18682219
2500000000 0.11930026 0.21799248 0.65132552 0.46963421 0.62854075 0.44885221 0.26545608 -0.29227713
2520000000 -0.031960577 0.17757854 0.73426068 -0.3302415 0.71618932 -0.31183311 0.15809782 -0.24066281
2540000000 -0.14451148 0.29781798 0.078227647 -0.79771692 0.078660771 -0.78907794 0.20264956 -0.078617252
2560000000 -0.099142492 0.31062365 -0.64869297 -0.47017133 -0.64897931 -0.45594171 0.23468624 -0.027973343
2580000000 -0.15545347 0.24174753 -0.73259753 0.33147302 -0.71339464 0.34324247 0.2439559 0.10795796
2600000000 -0.15933919 0.21609886 -0.07673087 0.79607779 -0.060441293 0.77654797 0.34978753 0.13312085
2620000000 -0.19963861 0.051537041 0.65077031 0.4615978 0.64113837 0.45520699 0.26721191 0.065382302
2640000000 -0.36503962 0.024749184 0.71848142 -0.32876027 0.72230786 -0.33878294 0.13181239 0.16091929
2660000000 -0.3316204 0.059692148 0.079161957 -0.78855598 0.061825402 -0.79544169 0.094247892 0.23382784
2680000000 -0.32037795 -0.050377931 -0.6471383 -0.45579877 -0.65975243 -0.44605809 0.01716413 0.28593168
2700000000 -0.31754971 -0.043121461 -0.71214861 0.32999614 -0.71061617 0.34359494 0.018839374 0.34191442
2720000000 -0.16929747 -0.15776649 -0.062931642 0.77906555 -0.065858692 0.78975064 0.020430259 0.25869367
2740000000 -0.23540054 -0.34101665 0.62871075 0.43618327 0.6571002 0.45423609 -0.084772706 0.16183634
2760000000 -0.27560213 -0.28666374 0.70057029 -0.31759205 0.72007239 -0.3459658 -0.20163341 0.11514126
2780000000 -0.15729904 -0.3067635 0.065312535 -0.77023739 0.059298243 -0.79274642 -0.29171076 0.11319871
2800000000 -0.13672477 -0.33238405 -0.63015044 -0.4364329 -0.65421343 -0.44920823 -0.28514948 0.11206408
2820000000 -0.0022342924 -0.28490257 -0.68937665 0.33593604 -0.71600217 0.34357461 -0.25391683 0.036389597
2840000000 0.11739374 -0.39671806 -0.047821388 0.74807751 -0.056938548 0.78997278 -0.21504791 -0.039320614
2860000000 0.085640684 -0.4228577 0.61558497 0.42384344 0.6524002 0.43716639 -0.16602245 -0.18957965
2880000000 0.12621519 -0.35249734 0.67925858 -0.32718414 0.69877416 -0.33751076 -0.24612744 -0.29003596
2900000000 0.17286566 -0.30417958 0.051684633 -0.75249314 0.0624668 -0.77876318 -0.22120118 -0.22616664
2920000000 0.24030319 -0.2125928 -0.63207388 -0.41384912 -0.64767587 -0.4358784 -0.090915114 -0.27569282
2940000000 0.33349231 -0.17853451 -0.66461086 0.34261346 -0.69693017 0.34358037 -0.064915664 -0.29039752
2960000000 0.3653397 -0.15290599 -0.035500582 0.74356109 -0.038582917 0.76937824 0.098499015 -0.26119572
2980000000 0.37641534 -0.12792957 0.6235804 0.40308231 0.62772661 0.41441891 0.1647232 -0.39753407
3000000000 0.31280831 -0.065799579 0.66984814 -0.34339279 0.68894106 -0.33419567 0.086474001 -0.31951225
3020000000 0.32249373 0.076247528 0.022805931 -0.75374496 0.035062637 -0.7636556 0.24424064 -0.20154217
3040000000 0.352889 0.09579806 -0.63729018 -0.3955009 -0.63514119 -0.41201755 0.26463228 -0.25489584
3060000000 0.27760571 0.16361055 -0.66350162 0.3651565 -0.67285281 0.36131945 0.24443038 -0.069406435
3080000000 0.31708014 0.22541665 -0.013605932 0.7457968 -0.021403058 0.73742425 0.43529364 -0.038141828
3100000000 0.2245248 0.14729556 0.64589763 0.40142944 0.63025624 0.41279384 0.32929805 -0.1162648
3120000000 0.068915613 0.2830793 0.66734493 -0.38125253 0.66870564 -0.36921844 0.25844559 0.11207052
3140000000 0.14051406 0.31881365 0.0079924734 -0.75880867 0.019164737 -0.74701667 0.37269086 0.11756718
3160000000 -0.0040279035 0.22114226 -0.67065459 -0.39085984 -0.65746176 -0.39652553 0.19441599 0.11565232
3180000000 -0.08402624 0.36770779 -0.65455973 0.38964868 -0.64714158 0.37735051 0.20976955 0.3163065
3200000000 0.010843342 0.26579371 -0.010531395 0.76574743 -0.020939505 0.75267303 0.25341186 0.18796428
3220000000 -0.20430779 0.14306852 0.68206519 0.38970658 0.67212677 0.38997987 -0.009977581 0.1943543
3240000000 -0.22785386 0.27419037 0.66533214 -0.39283478 0.65578216 -0.38407847 0.020723708 0.34117576
3260000000 -0.15598266 0.104669 -5.7668192e-005 -0.78436911 0.0034055947 -0.77518266 -0.0075408709 0.1688558
3280000000 -0.33948365 0.052627698 -0.68524593 -0.38036868 -0.67734045 -0.37385926 -0.21861358 0.21800075
3300000000 -0.23541602 0.10849635 -0.67275971 0.39188534 -0.66486603 0.38599533 -0.11978403 0.24647866
3320000000 -0.21017241 -0.12875617 0.0051662251 0.78963345 0.0067283567 0.78637785 -0.18744752 0.034606677
3340000000 -0.35088837 -0.10736528 0.68225968 0.38373765 0.68115205 0.37685579 -0.30685586 0.0841818
3360000000 -0.18073559 -0.091421179 0.67838854 -0.39482698 0.67409283 -0.39625502 -0.17725325 0.017133273
3380000000 -0.17198789 -0.2747024 -0.0061141769 -0.78543025 -0.010843893 -0.78417832 -0.24664263 -0.15272073
3400000000 -0.18649378 -0.20802507 -0.68026203 -0.38822919 -0.68055558 -0.38491395 -0.24700433 -0.10581712
3420000000 -0.0052566342 -0.26342779 -0.67440218 0.39561182 -0.67610121 0.39840367 -0.11869761 -0.20315352
3440000000 -0.033510476 -0.36629763 0.0021270528 0.77737856 0.007277343 0.7821188 -0.13663664 -0.2681329
3460000000 0.0058390377 -0.27161464 0.67546403 0.38770217 0.67911786 0.38322645 -0.028596837 -0.23559363
3480000000 0.12604149 -0.28873855 0.66844559 -0.39065605 0.66774702 -0.39215317 0.061360139 -0.31432381
3500000000 0.14354539 -0.26918069 -0.0038726784 -0.77248603 -0.0051220199 -0.77327257 0.090196826 -0.28020078
3520000000 0.22316881 -0.21579261 -0.66897321 -0.37782034 -0.66679984 -0.37716833 0.21095297 -0.25904816
3540000000 0.25308585 -0.18776387 -0.65838778 0.38958514 -0.65893704 0.38518485 0.23625466 -0.25220612
3560000000 0.30781713 -0.10866535 0.01226512 0.75972795 0.009135277 0.75770873 0.30181479 -0.15643118
3580000000 0.33004829 -0.098125294 0.66050917 0.36852872 0.65361941 0.37092143 0.35355344 -0.13952935
3600000000 0.30189285 0.022785962 0.64288592 -0.39483434 0.64293307 -0.38682336 0.33783385 -0.026069343
3620000000 0.40634194 0.078524128 -0.019034894 -0.73902434 -0.012678026 -0.73398423 0.43630326 0.04204946
3640000000 0.32508475 0.04065033 -0.65370524 -0.36172411 -0.64556205 -0.36518171 0.36647108 0.020242602
3660000000 0.26829442 0.21954688 -0.62725449 0.39700103 -0.62657303 0.38934031 0.30063358 0.19334358
3680000000 0.34920657 0.21575031 0.021317614 0.73446041 0.016419927 0.72964036 0.35696134 0.20789577
3700000000 0.18341281 0.22724567 0.66410911 0.3408379 0.65693372 0.34019145 0.17523077 0.23219046
3720000000 0.23042171 0.39752883 0.59999979 -0.39511114 0.5950895 -0.38785145 0.1901646 0.43461597
3740000000 0.26054111 0.23444462 -0.018311493 -0.72973317 -0.013166193 -0.72291809 0.25129169 0.31637478
3760000000 -0.015391339 0.27178037 -0.66622925 -0.33163625 -0.66171956 -0.33428097 0.011667768 0.29592472
3780000000 0.059762761 0.41741291 -0.60861927 0.39820656 -0.60744971 0.3984955 0.035092022 0.40263364
3800000000 -0.0015246747 0.2385722 0.050555218 0.75020742 0.053273503 0.74578393 -0.044682622 0.21308006
3820000000 -0.17406473 0.39384866 0.65816057 0.29639322 0.65623069 0.29471409 -0.26568654 0.34301177
3840000000 0.030863101 0.38326398 0.60587227 -0.38647106 0.60401922 -0.3887161 -0.075005159 0.38198221
3860000000 -0.10574631 0.1036471 -0.048424359 -0.75785691 -0.050605863 -0.75801355 -0.13401167 0.078696415
3880000000 -0.25061837 0.24879389 -0.67383236 -0.31591952 -0.6792689 -0.31340572 -0.29962936 0.15489896
3900000000 -0.10317799 0.13869472 -0.62786376 0.43355349 -0.62563431 0.43983382 -0.13096835 0.054745529
