!Keysight Technologies,E5080B,MY59100652,A.14.10.03
!Date: Wednesday, May 25, 2022 16:49:35
!Correction: S22(Off) 
!S1P File: Measurement: :
# Hz S  RI   R 50
100000000 0.53658026 0.81934267
120000000 0.88813651 0.011032171
140000000 0.41959065 -0.76677936
160000000 -0.58760005 -0.7952587
180000000 -1.0614421 0.15293781
200000000 -0.41386989 0.90064394
220000000 0.466719 0.72698587
240000000 0.85152835 -0.079699866
260000000 0.36852032 -0.91022795
280000000 -0.64363694 -0.84319317
300000000 -0.96090239 0.086028919
320000000 -0.34135389 0.77045852
340000000 0.57311469 0.66078949
360000000 0.99687165 -0.20128338
380000000 0.40500748 -0.97234923
400000000 -0.51003128 -0.76666886
420000000 -0.7985732 0.10807153
440000000 -0.21725655 0.86610723
460000000 0.75749326 0.73635566
480000000 1.0377684 -0.16400596
500000000 0.40635318 -0.78707778
520000000 -0.47209004 -0.61000764
540000000 -0.84968019 0.27972245
560000000 -0.20974553 1.0486743
580000000 0.68267667 0.77715814
600000000 0.85281253 -0.067888074
620000000 0.2605395 -0.71327388
640000000 -0.68196881 -0.59139782
660000000 -1.0112319 0.32882813
680000000 -0.33820444 0.94866961
700000000 0.48578423 0.66981852
720000000 0.74257094 -0.19811714
740000000 0.11537787 -0.93156564
760000000 -0.79703921 -0.69928831
780000000 -0.96119732 0.14586447
800000000 -0.34110206 0.72185028
820000000 0.56416041 0.54157895
840000000 0.89455092 -0.39511633
860000000 0.21380566 -1.0381825
880000000 -0.56749398 -0.73735881
900000000 -0.74953622 0.082399458
920000000 -0.12177145 0.78568244
940000000 0.85686105 0.55418634
960000000 1.0040348 -0.34565964
980000000 0.35691315 -0.82173502
1000000000 -0.4264695 -0.57279158
1020000000 -0.73061281 0.31548628
1040000000 -0.049431361 1.037433
1060000000 0.77658081 0.72067952
1080000000 0.87071776 -0.063643217
1100000000 0.25969166 -0.6339255
1120000000 -0.68458718 -0.42483842
1140000000 -0.89940542 0.53733873
1160000000 -0.2084658 1.0185304
1180000000 0.4797681 0.70083159
1200000000 0.6717087 -0.11029749
1220000000 0.00071326602 -0.82976478
1240000000 -0.91973817 -0.49774092
1260000000 -0.95503104 0.31208655
1280000000 -0.35378373 0.73509544
1300000000 0.45291525 0.5208081
1320000000 0.76784533 -0.44228572
1340000000 -0.012036964 -1.0671206
1360000000 -0.70670706 -0.66090667
1380000000 -0.74974543 0.061850719
1400000000 -0.16370341 0.64239198
1420000000 0.80839908 0.43606406
1440000000 0.95930111 -0.52967423
1460000000 0.26254535 -0.93697536
1480000000 -0.40822741 -0.61296368
1500000000 -0.62531567 0.1910238
1520000000 0.00049933011 0.90969104
1540000000 0.87815493 0.6166352
1560000000 0.92154759 -0.19473468
1580000000 0.26218119 -0.64649981
1600000000 -0.56960523 -0.36798269
1620000000 -0.79125869 0.51356572
1640000000 -0.17022072 1.0485591
1660000000 0.52656633 0.76047963
1680000000 0.66460645 -0.053198505
1700000000 -0.045282103 -0.6852411
1720000000 -0.90321881 -0.34918934
1740000000 -0.96775347 0.3980372
1760000000 -0.42561036 0.80042392
1780000000 0.32654271 0.57709044
1800000000 0.5860272 -0.36167863
1820000000 -0.16991256 -0.95214325
1840000000 -0.82298779 -0.58966702
1860000000 -0.86306632 0.060659118
1880000000 -0.31796312 0.58070946
1900000000 0.61396319 0.38762337
1920000000 0.79544199 -0.56732279
1940000000 0.12653187 -0.96970254
1960000000 -0.47655949 -0.64009452
1980000000 -0.6265828 0.11698961
2000000000 -0.00097819697 0.80394024
2020000000 0.90018082 0.52578545
2040000000 0.94595492 -0.26981699
2060000000 0.32047719 -0.65051281
2080000000 -0.42858052 -0.36450276
2100000000 -0.67212021 0.49790564
2120000000 -0.043781187 1.1019615
2140000000 0.66709578 0.79531133
2160000000 0.72285914 0.024110992
2180000000 0.054573253 -0.50932753
2200000000 -0.78088832 -0.24609172
2220000000 -0.94594121 0.50636452
2240000000 -0.41527995 0.94718492
2260000000 0.30254155 0.68040252
2280000000 0.47868642 -0.21225499
2300000000 -0.20321277 -0.79111564
2320000000 -0.87603229 -0.538562
2340000000 -0.98281544 0.085252449
2360000000 -0.42943031 0.58460033
2380000000 0.45414686 0.30668899
2400000000 0.59941107 -0.57678556
2420000000 0.053983662 -1.0040377
2440000000 -0.51618457 -0.79603958
2460000000 -0.69610965 -0.090073876
2480000000 -0.040915579 0.56909037
2500000000 0.81332743 0.26078379
2520000000 0.89538258 -0.42867079
2540000000 0.41812542 -0.80656093
2560000000 -0.29043728 -0.59775388
2580000000 -0.5259375 0.30688208
2600000000 0.16201371 0.87754422
2620000000 0.7902925 0.60797232
2640000000 0.88469672 -0.0043733418
2660000000 0.33737001 -0.53279829
2680000000 -0.56646997 -0.29100385
2700000000 -0.72980434 0.57062274
2720000000 -0.17519858 0.98984343
2740000000 0.43719915 0.72557348
2760000000 0.57776928 -0.060598727
2780000000 -0.080301896 -0.66778266
2800000000 -0.85041797 -0.4306356
2820000000 -0.98390424 0.23414484
2840000000 -0.43708509 0.68437827
2860000000 0.36552832 0.38439304
2880000000 0.51261336 -0.48653176
2900000000 -0.027382167 -0.96556622
2920000000 -0.61009353 -0.80256587
2940000000 -0.79241896 -0.13400945
2960000000 -0.12949347 0.48218334
2980000000 0.70835143 0.14255787
3000000000 0.80922246 -0.52247858
3020000000 0.42056513 -0.90275478
3040000000 -0.22138263 -0.78042597
3060000000 -0.49627721 0.1007717
3080000000 0.24594541 0.68832612
3100000000 0.858527 0.41094828
3120000000 0.96450812 -0.09736558
3140000000 0.56934536 -0.57053673
3160000000 -0.32550839 -0.44581261
3180000000 -0.53812701 0.52992791
3200000000 0.068647161 0.94137025
3220000000 0.57565266 0.71266669
3240000000 0.72633469 0.1010744
3260000000 0.16253743 -0.55926126
3280000000 -0.77087569 -0.30230433
3300000000 -0.86361128 0.46009085
3320000000 -0.35790345 0.81463051
3340000000 0.28495881 0.586505
3360000000 0.52889848 -0.22502849
3380000000 -0.072637767 -0.86955416
3400000000 -0.78348613 -0.6541118
3420000000 -0.88940376 0.01529302
3440000000 -0.29039884 0.50566608
3460000000 0.52927762 0.24633993
3480000000 0.74564093 -0.49963897
3500000000 0.32347614 -0.98625988
3520000000 -0.32789761 -0.84387308
3540000000 -0.53473353 -0.013353879
3560000000 0.17442144 0.57390714
3580000000 0.85692757 0.33483553
3600000000 1.0206523 -0.18772763
3620000000 0.66261011 -0.65055889
3640000000 -0.16715485 -0.53362888
3660000000 -0.4025217 0.41834733
3680000000 0.18025579 0.89137429
3700000000 0.6869486 0.74822676
3720000000 0.88949859 0.2484241
3740000000 0.4486804 -0.4096806
3760000000 -0.54679996 -0.20265323
3780000000 -0.65954739 0.61173695
3800000000 -0.21731789 0.95839792
3820000000 0.3084749 0.82615387
3840000000 0.61956716 0.14203615
3860000000 0.005628705 -0.64143866
3880000000 -0.83710599 -0.35067663
3900000000 -0.89658356 0.28644142
3920000000 -0.44169271 0.66385049
3940000000 0.28499922 0.53669518
3960000000 0.66454238 -0.31002259
3980000000 0.052099228 -0.97374523
4000000000 -0.6192922 -0.69787008
4020000000 -0.69077146 -0.024138063
4040000000 -0.14599887 0.50834596
4060000000 0.69493055 0.39306396
4080000000 1.002395 -0.36899507
4100000000 0.47281834 -0.88902932
4120000000 -0.23448196 -0.62757587
4140000000 -0.42615753 0.16338623
4160000000 0.092373662 0.78710806
4180000000 0.82175177 0.69688523
4200000000 1.0480644 0.033219714
4220000000 0.48264614 -0.51710719
4240000000 -0.35756859 -0.27763778
4260000000 -0.59327596 0.4990173
4280000000 -0.16258919 1.0155146
4300000000 0.45856389 0.91328847
4320000000 0.71946526 0.2046407
4340000000 0.11255787 -0.48101842
4360000000 -0.72822171 -0.25633132
4380000000 -0.89221305 0.40338668
4400000000 -0.47815168 0.83012658
4420000000 0.20908503 0.71705741
4440000000 0.55098873 -0.11227457
4460000000 -0.096797176 -0.78376478
4480000000 -0.78753144 -0.51668084
4500000000 -0.88260829 0.084884889
4520000000 -0.44315097 0.56726342
4540000000 0.37518352 0.51077139
4560000000 0.73938692 -0.35736057
4580000000 0.10211868 -0.90457225
4600000000 -0.5230397 -0.60478812
4620000000 -0.66053778 0.048170839
4640000000 -0.23081598 0.65574592
4660000000 0.62359875 0.63124174
4680000000 0.88532692 -0.2069961
4700000000 0.23311292 -0.67176455
4720000000 -0.43716514 -0.40848464
4740000000 -0.70149618 0.23028703
4760000000 -0.36725342 0.87354231
4780000000 0.44218162 0.83992368
4800000000 0.65575558 -0.01207938
4820000000 0.017651031 -0.53510916
4840000000 -0.67404997 -0.37903196
4860000000 -0.96913111 0.18770127
4880000000 -0.62589097 0.76742846
4900000000 0.18869008 0.66880149
4920000000 0.4401992 -0.20207091
4940000000 -0.12320103 -0.75987697
4960000000 -0.74507797 -0.63905913
4980000000 -0.97705925 -0.093039677
5000000000 -0.56077695 0.49403313
5020000000 0.33328095 0.3681294
5040000000 0.56799537 -0.48690709
5060000000 0.04871456 -0.94642591
5080000000 -0.51083314 -0.77934217
5100000000 -0.73724031 -0.17689766
5120000000 -0.28820533 0.50864726
5140000000 0.63361126 0.39158338
5160000000 0.79755801 -0.40111938
5180000000 0.26288962 -0.78710508
5200000000 -0.35259405 -0.59236884
5220000000 -0.66123503 0.082349613
5240000000 -0.20440784 0.81641769
5260000000 0.64214671 0.62605333
5280000000 0.70954341 -0.13882108
5300000000 0.15284631 -0.56438839
5320000000 -0.53798229 -0.45628685
5340000000 -0.92794108 0.18333973
5360000000 -0.4784905 0.86404681
5380000000 0.33073816 0.60972846
5400000000 0.44377583 -0.18112965
5420000000 -0.035487082 -0.70459563
5440000000 -0.69382602 -0.69759768
5460000000 -1.0495445 -0.10322695
5480000000 -0.53578973 0.53887361
5500000000 0.31131342 0.27976707
5520000000 0.50216442 -0.4672347
5540000000 0.12067843 -0.96304327
5560000000 -0.46707961 -0.93405467
5580000000 -0.77149194 -0.27960965
5600000000 -0.16722722 0.39901638
5620000000 0.65338016 0.13287859
5640000000 0.79465467 -0.49921551
5660000000 0.43623921 -0.89197224
5680000000 -0.16974464 -0.81819499
5700000000 -0.51536298 -0.045441516
5720000000 0.15804222 0.62908852
5740000000 0.83080709 0.32505748
5760000000 0.88762701 -0.21657223
5780000000 0.49496114 -0.61251265
5800000000 -0.25918028 -0.5427593
5820000000 -0.58936411 0.3659012
5840000000 0.10022968 0.85291588
5860000000 0.62351704 0.53825223
5880000000 0.70308441 -0.020358533
5900000000 0.28281215 -0.57234186
5920000000 -0.61002123 -0.50158507
5940000000 -0.79775345 0.37890029
5960000000 -0.16423082 0.73208702
5980000000 0.40610543 0.43212062
6000000000 0.59304422 -0.22661564
6020000000 0.14618924 -0.8606174
6040000000 -0.66358197 -0.71569967
6060000000 -0.75975263 0.077776268
6080000000 -0.11901856 0.48432276
6100000000 0.55521607 0.23898388
6120000000 0.79368192 -0.40171701
6140000000 0.38613307 -0.95227528
6160000000 -0.35807481 -0.77193171
6180000000 -0.46794531 0.078692012
6200000000 0.19324364 0.53555238
6220000000 0.8075363 0.30796382
6240000000 0.97028542 -0.23683035
6260000000 0.5558874 -0.72209156
6280000000 -0.26318237 -0.5165931
6300000000 -0.36479408 0.39251509
6320000000 0.24394193 0.76076567
6340000000 0.72745341 0.54309881
6360000000 0.86530745 0.025412302
6380000000 0.39661857 -0.54976034
6400000000 -0.52949601 -0.25778642
6420000000 -0.49556369 0.57661557
6440000000 0.023744261 0.81512517
6460000000 0.47955984 0.60378003
6480000000 0.68756902 0.0013527655
6500000000 0.10135336 -0.69055599
6520000000 -0.74189097 -0.27065167
6540000000 -0.63879466 0.40652597
6560000000 -0.14846353 0.65725362
6580000000 0.43730649 0.47101495
6600000000 0.70759714 -0.30019909
6620000000 -0.018307419 -0.87162447
6640000000 -0.63650465 -0.41177332
6660000000 -0.56366581 0.21915992
6680000000 -0.035685275 0.59637356
6700000000 0.69036645 0.39034042
6720000000 0.83148974 -0.41368291
6740000000 0.16674607 -0.78938156
6760000000 -0.4272894 -0.39007714
6780000000 -0.43848005 0.34102419
6800000000 0.17262135 0.76942647
6820000000 0.8071025 0.47071016
6840000000 0.84311271 -0.18887666
6860000000 0.24707147 -0.58168298
6880000000 -0.47647268 -0.20380141
6900000000 -0.44807318 0.5942542
6920000000 0.13678658 0.87940764
6940000000 0.62865543 0.6009059
6960000000 0.71271938 -0.038138896
6980000000 0.030244391 -0.5383516
7000000000 -0.6828599 -0.022880198
7020000000 -0.53300422 0.62183398
7040000000 -0.060004458 0.83154601
7060000000 0.46121415 0.61380029
7080000000 0.61957043 -0.16428298
7100000000 -0.21676224 -0.60150164
7120000000 -0.72535419 -0.066513576
7140000000 -0.61072326 0.45421338
7160000000 -0.17031689 0.74181819
7180000000 0.51008648 0.53153801
7200000000 0.54906416 -0.4031429
7220000000 -0.24968959 -0.60662872
7240000000 -0.65067291 -0.17136993
7260000000 -0.62059039 0.361774
7280000000 -0.1108169 0.77569509
7300000000 0.66707522 0.40569922
7320000000 0.49831831 -0.43444881
7340000000 -0.16116816 -0.5814929
7360000000 -0.62278974 -0.21256529
7380000000 -0.64427161 0.4300198
7400000000 -0.0059637167 0.8412984
7420000000 0.64771146 0.37390116
7440000000 0.49265444 -0.35041985
7460000000 -0.14944351 -0.57639158
7480000000 -0.69486099 -0.18334866
7500000000 -0.65783292 0.50274193
7520000000 -0.028129375 0.81654692
7540000000 0.56822675 0.39039758
7560000000 0.45001096 -0.36549741
7580000000 -0.2609548 -0.58737713
7600000000 -0.74724132 -0.13188641
7620000000 -0.6564756 0.47453785
7640000000 -0.072687201 0.7717213
7660000000 0.56915075 0.32899335
7680000000 0.365733 -0.46935895
7700000000 -0.31892291 -0.58565217
7720000000 -0.72452724 -0.18612221
7740000000 -0.69292122 0.38616803
7760000000 -0.073746406 0.75548083
7780000000 0.59136575 0.19912724
7800000000 0.29614699 -0.51118028
7820000000 -0.2841562 -0.6069687
7840000000 -0.70755738 -0.2832953
7860000000 -0.73784643 0.34489465
7880000000 -0.023233559 0.73021746
7900000000 0.55946088 0.127464
7920000000 0.30746904 -0.50141865
7940000000 -0.24157238 -0.65894765
7960000000 -0.73740518 -0.3306874
7980000000 -0.72019821 0.38410747
8000000000 0.03831375 0.66543204
8020000000 0.54363644 0.096828364
8040000000 0.33459565 -0.52899182
8060000000 -0.2524634 -0.71636093
8080000000 -0.76690936 -0.33326232
8100000000 -0.69077861 0.37241846
8120000000 0.038400702 0.62142152
8140000000 0.55274767 0.059342813
8160000000 0.32032967 -0.58883005
8180000000 -0.27965197 -0.74146491
8200000000 -0.75540447 -0.35575229
8220000000 -0.68138045 0.3315531
8240000000 0.074418113 0.5815199
8260000000 0.56705892 -0.02077884
8280000000 0.32130742 -0.62033701
8300000000 -0.22184266 -0.77119887
8320000000 -0.70957184 -0.42159718
8340000000 -0.63418597 0.3213537
8360000000 0.17819002 0.51633555
8380000000 0.59206432 -0.069426209
8400000000 0.38901031 -0.60588747
8420000000 -0.13237664 -0.79173356
8440000000 -0.68149114 -0.4090949
8460000000 -0.53016073 0.39262429
8480000000 0.23990422 0.51914924
8500000000 0.62709373 0.0225637
8520000000 0.48231703 -0.52579951
8540000000 -0.10956439 -0.76264721
8560000000 -0.70251727 -0.27092004
8580000000 -0.46640182 0.48364586
8600000000 0.20802169 0.58336234
8620000000 0.61244881 0.1234158
8640000000 0.45889559 -0.50563258
8660000000 -0.2323942 -0.72924566
8680000000 -0.76394165 -0.21250856
8700000000 -0.56944185 0.44710329
8720000000 0.077741526 0.5953843
8740000000 0.55278778 0.083147883
8760000000 0.34421831 -0.60507137
8780000000 -0.30917269 -0.77889711
8800000000 -0.77429211 -0.34879407
8820000000 -0.62029392 0.30158085
8840000000 0.11019497 0.46484026
8860000000 0.58201516 -0.103505
8880000000 0.3980065 -0.7076422
8900000000 -0.13301522 -0.89927572
8920000000 -0.6262747 -0.51314723
8940000000 -0.44086888 0.23735307
8960000000 0.33259851 0.35668367
8980000000 0.73659533 -0.12043216
9000000000 0.64065796 -0.62842321
9020000000 0.1274166 -0.86755157
9040000000 -0.45878994 -0.39180675
9060000000 -0.18771785 0.39110428
9080000000 0.46214703 0.48850569
9100000000 0.83386856 0.14256629
9120000000 0.79119974 -0.37881881
9140000000 0.15144782 -0.67706245
9160000000 -0.45488492 -0.081953138
9180000000 -0.19305582 0.59028798
9200000000 0.33986583 0.71018487
9220000000 0.74004209 0.37572753
9240000000 0.66911238 -0.27410486
9260000000 -0.08957959 -0.55393344
9280000000 -0.62338871 0.0011377948
9300000000 -0.43168962 0.5942288
9320000000 0.1233648 0.73610127
9340000000 0.60360932 0.30393752
9360000000 0.47536477 -0.42965606
9380000000 -0.23430358 -0.66982991
9400000000 -0.71341008 -0.18600522
9420000000 -0.49965802 0.43002197
9440000000 0.15936224 0.56847751
9460000000 0.66592145 0.11448775
9480000000 0.60623151 -0.54352331
9500000000 0.00071553566 -0.82123089
9520000000 -0.5251078 -0.31995931
9540000000 -0.26933384 0.38483822
9560000000 0.37772301 0.54405934
9580000000 0.84555006 0.21363685
9600000000 0.85765654 -0.35984835
9620000000 0.21627957 -0.66630387
9640000000 -0.35744518 -0.077186599
9660000000 -0.12901375 0.59205246
9680000000 0.37461075 0.7831291
9700000000 0.80688804 0.5485689
9720000000 0.83430171 -0.072506472
9740000000 0.070422746 -0.39716288
9760000000 -0.47199696 0.1764653
9780000000 -0.3336077 0.73520046
9800000000 0.09111993 0.94046742
9820000000 0.57431078 0.67910248
9840000000 0.56024575 -0.084963411
9860000000 -0.23086542 -0.36584836
9880000000 -0.6995092 0.098294184
9900000000 -0.6074177 0.60393894
9920000000 -0.1273647 0.83847815
9940000000 0.46641117 0.48913699
9960000000 0.41408828 -0.31787041
9980000000 -0.26937497 -0.57464629
10000000000 -0.71904469 -0.17811054
10020000000 -0.62666374 0.39563683
10040000000 -0.030198371 0.68022627
10060000000 0.59374946 0.29014251
10080000000 0.54526252 -0.43025753
10100000000 -0.071938463 -0.6770972
10120000000 -0.56631434 -0.25478241
10140000000 -0.47558457 0.40902975
10160000000 0.12715249 0.71920282
10180000000 0.70418358 0.37867013
10200000000 0.65899205 -0.29828408
10220000000 0.0027887372 -0.55666971
10240000000 -0.54256558 -0.12041792
10260000000 -0.49872646 0.52782077
10280000000 0.030552667 0.84443706
10300000000 0.59629393 0.52729434
10320000000 0.55770612 -0.1923122
10340000000 -0.10753758 -0.49538052
10360000000 -0.6569007 -0.12940593
10380000000 -0.65723276 0.47197109
10400000000 -0.1254112 0.79667324
10420000000 0.4841291 0.44713834
10440000000 0.46282271 -0.2864891
10460000000 -0.13379057 -0.60600984
10480000000 -0.66504484 -0.29003
10500000000 -0.66274422 0.3403689
10520000000 -0.064451508 0.68451202
10540000000 0.55155599 0.32684937
10560000000 0.54965985 -0.34481165
10580000000 -0.0034138882 -0.65752429
10600000000 -0.56368709 -0.32415777
10620000000 -0.56656289 0.36438194
10640000000 0.016873423 0.72640312
10660000000 0.59532958 0.42154095
10680000000 0.60197425 -0.22585069
10700000000 0.0094772214 -0.55828452
10720000000 -0.59446406 -0.21833773
10740000000 -0.63641417 0.43684232
10760000000 -0.12890555 0.793235
10780000000 0.44648728 0.50064605
10800000000 0.45340997 -0.20684777
10820000000 -0.15267022 -0.56940514
10840000000 -0.72000712 -0.29589337
10860000000 -0.78801215 0.27887723
10880000000 -0.27426749 0.6427477
10900000000 0.37154752 0.30234477
10920000000 0.38357201 -0.42298421
10940000000 -0.12514792 -0.76348317
10960000000 -0.62449116 -0.55210853
10980000000 -0.69689769 0.051085591
11000000000 -0.081586644 0.46951774
11020000000 0.57789081 0.11453312
11040000000 0.61219966 -0.49319479
11060000000 0.19221818 -0.79963112
11080000000 -0.34873962 -0.57181805
11100000000 -0.43462574 0.16624136
11120000000 0.1974742 0.59843659
11140000000 0.75083929 0.32999626
11160000000 0.79542214 -0.18131159
11180000000 0.32817975 -0.52313799
11200000000 -0.35311836 -0.24557723
11220000000 -0.44655466 0.51010782
11240000000 0.046595305 0.87030321
11260000000 0.5093435 0.65209132
11280000000 0.56008357 0.068905488
11300000000 -0.024130313 -0.37722656
11320000000 -0.71135807 -0.099777184
11340000000 -0.79179174 0.48147532
11360000000 -0.38258013 0.77174342
11380000000 0.15446642 0.5125975
11400000000 0.2290533 -0.2312867
11420000000 -0.35375616 -0.66164905
11440000000 -0.86481023 -0.44889283
11460000000 -0.9105255 0.02589583
11480000000 -0.42734122 0.36521447
11500000000 0.26882657 0.065637246
11520000000 0.3574768 -0.65729529
11540000000 -0.071768165 -0.98851329
11560000000 -0.49390098 -0.79743129
11580000000 -0.55895102 -0.22065502
11600000000 0.01970269 0.26208228
11620000000 0.71334785 0.019911885
11640000000 0.80931884 -0.52517641
11660000000 0.41702399 -0.80482543
11680000000 -0.1310703 -0.55525756
11700000000 -0.25745374 0.18477416
11720000000 0.26669887 0.66270691
11740000000 0.78258514 0.49596429
