!Keysight Technologies,E5080B,MY59100652,A.14.10.03
!Date: Wednesday, May 25, 2022 16:48:21
!Correction: S11(Off) 
!S1P File: Measurement: :
# Hz S  RI   R 50
100000000 0.55349433 0.8363384
120000000 0.9048413 0.013576617
140000000 0.39217684 -0.76321518
160000000 -0.62334877 -0.7279734
180000000 -1.0435908 0.22000551
200000000 -0.40411651 0.94044441
220000000 0.46874067 0.7514149
240000000 0.80851531 -0.066076279
260000000 0.28797889 -0.88663733
280000000 -0.73140264 -0.77553225
300000000 -1.0048212 0.16023678
320000000 -0.35784397 0.78765404
340000000 0.52171218 0.61867207
360000000 0.90638453 -0.25052246
380000000 0.29516846 -1.026673
400000000 -0.62818784 -0.77919513
420000000 -0.82152987 0.11054765
440000000 -0.18450272 0.76869428
460000000 0.75466746 0.59355104
480000000 1.0359185 -0.32326403
500000000 0.35534063 -0.92937702
520000000 -0.48339537 -0.63490623
540000000 -0.71384209 0.2608434
560000000 -0.041496206 0.96479452
580000000 0.8639791 0.67512065
600000000 0.97079796 -0.19579107
620000000 0.29326153 -0.71753043
640000000 -0.57724857 -0.44716108
660000000 -0.81693196 0.49582502
680000000 -0.09095414 1.0925808
700000000 0.67833072 0.71919918
720000000 0.75658542 -0.11416155
740000000 0.074815087 -0.70433348
760000000 -0.84564275 -0.41324639
780000000 -0.96403366 0.50138706
800000000 -0.26400331 0.94842505
820000000 0.47783998 0.59608328
840000000 0.63747472 -0.2915318
860000000 -0.09639287 -0.92598414
880000000 -0.92528522 -0.54085267
900000000 -0.92643207 0.27683774
920000000 -0.24341749 0.71202564
940000000 0.59200519 0.38493395
960000000 0.74800098 -0.56791902
980000000 -0.0055590509 -1.0643951
1000000000 -0.6916064 -0.64462394
1020000000 -0.70773441 0.16640583
1040000000 0.023656463 0.70673585
1060000000 0.90697378 0.32034647
1080000000 0.91693771 -0.55961394
1100000000 0.21885833 -0.91024625
1120000000 -0.47383481 -0.50715089
1140000000 -0.55356956 0.40163362
1160000000 0.24450961 0.94250643
1180000000 0.9745971 0.48997554
1200000000 0.90784556 -0.26508293
1220000000 0.20762417 -0.64271814
1240000000 -0.60591 -0.21445474
1260000000 -0.60862279 0.73526877
1280000000 0.13812241 1.0841397
1300000000 0.72495455 0.6461696
1320000000 0.68422437 -0.14681029
1340000000 -0.11641012 -0.60738605
1360000000 -0.89983189 -0.11261139
1380000000 -0.8193723 0.66954505
1400000000 -0.17175655 0.95066148
1420000000 0.48263809 0.52809739
1440000000 0.48517406 -0.40310478
1460000000 -0.37757975 -0.83644789
1480000000 -1.0049163 -0.3186366
1500000000 -0.87154472 0.36354092
1520000000 -0.19889414 0.67354071
1540000000 0.58493537 0.22913942
1560000000 0.54141033 -0.74574172
1580000000 -0.2457206 -1.0283213
1600000000 -0.75916988 -0.5526644
1620000000 -0.6783824 0.16814269
1640000000 0.072622508 0.62075126
1660000000 0.9122228 0.11933075
1680000000 0.76140648 -0.73400092
1700000000 0.057468679 -0.92118716
1720000000 -0.50658303 -0.44867048
1740000000 -0.4862434 0.40255198
1760000000 0.31740031 0.86959267
1780000000 1.0056245 0.36449295
1800000000 0.83903128 -0.37750566
1820000000 0.09528368 -0.62861371
1840000000 -0.61089176 -0.11780994
1860000000 -0.5544005 0.7627635
1880000000 0.1653367 1.0820768
1900000000 0.73067939 0.61136496
1920000000 0.58900362 -0.1846624
1940000000 -0.24528837 -0.51353121
1960000000 -0.91922277 0.007158251
1980000000 -0.82515103 0.72505736
2000000000 -0.18349686 0.98468387
2020000000 0.45242581 0.48632583
2040000000 0.3043651 -0.42327544
2060000000 -0.49874681 -0.69992465
2080000000 -1.0196669 -0.24935457
2100000000 -0.91055024 0.38789922
2120000000 -0.19059706 0.68139166
2140000000 0.54195017 0.086854428
2160000000 0.32866883 -0.7794506
2180000000 -0.3411504 -0.94702899
2200000000 -0.77932131 -0.53095293
2220000000 -0.68311125 0.17292801
2240000000 0.15176348 0.54525495
2260000000 0.84652328 -0.0827948
2280000000 0.61830962 -0.78144187
2300000000 0.017581625 -0.91416568
2320000000 -0.50399393 -0.46011347
2340000000 -0.39942828 0.41200858
2360000000 0.47897175 0.71124065
2380000000 0.98772538 0.14948024
2400000000 0.77620631 -0.45625865
2420000000 0.096219324 -0.65081346
2440000000 -0.57310742 -0.10288916
2460000000 -0.39811888 0.77657062
2480000000 0.32789865 0.95835024
2500000000 0.76874197 0.47301146
2520000000 0.58881032 -0.23366275
2540000000 -0.229083 -0.5198254
2560000000 -0.87357247 0.055532917
2580000000 -0.69129735 0.75100797
2600000000 -0.055257384 0.90499032
2620000000 0.4785434 0.37357974
2640000000 0.27219814 -0.47722024
2660000000 -0.51645917 -0.6999287
2680000000 -0.99165541 -0.24228024
2700000000 -0.84829003 0.36190104
2720000000 -0.11914126 0.58572179
2740000000 0.51340103 -0.058754563
2760000000 0.26119146 -0.81646347
2780000000 -0.32255781 -0.96021992
2800000000 -0.73838031 -0.58587748
2820000000 -0.61686516 0.1328228
2840000000 0.27705219 0.38331813
2860000000 0.78974593 -0.25863761
2880000000 0.58789647 -0.80375892
2900000000 0.093866199 -0.94600886
2920000000 -0.43661496 -0.5278151
2940000000 -0.24924612 0.37959096
2960000000 0.61020279 0.51108772
2980000000 0.97312057 0.030573474
3000000000 0.8339262 -0.44819286
3020000000 0.25076041 -0.6850512
3040000000 -0.46111968 -0.12491369
3060000000 -0.15548198 0.75747311
3080000000 0.50692481 0.80962181
3100000000 0.83004802 0.4002113
3120000000 0.69406039 -0.19627693
3140000000 -0.10577978 -0.5081436
3160000000 -0.76791674 0.17649253
3180000000 -0.46473876 0.84951431
3200000000 0.10722008 0.90305161
3220000000 0.52502048 0.44407207
3240000000 0.37718979 -0.34717658
3260000000 -0.49110818 -0.6264779
3280000000 -1.0014724 -0.032164518
3300000000 -0.73809701 0.55671614
3320000000 -0.07239788 0.65471601
3340000000 0.48652831 0.086112268
3360000000 0.29242003 -0.73609859
3380000000 -0.42977104 -0.9195354
3400000000 -0.8592186 -0.40674344
3420000000 -0.59021127 0.27706331
3440000000 0.23535098 0.42193472
3460000000 0.76905227 -0.1821312
3480000000 0.57140148 -0.82694495
3500000000 -0.045096181 -0.96496814
3520000000 -0.54118818 -0.3984735
3540000000 -0.22178823 0.42600873
3560000000 0.57791829 0.53187025
3580000000 0.98743415 0.056367684
3600000000 0.83586073 -0.49414518
3620000000 0.15049952 -0.690521
3640000000 -0.45754027 -0.0028006472
3660000000 -0.082738005 0.77162379
3680000000 0.54117656 0.81607825
3700000000 0.88022423 0.41951442
3720000000 0.74733526 -0.19892254
3740000000 -0.10070504 -0.46851513
3760000000 -0.67142344 0.27859175
3780000000 -0.33929926 0.88278782
3800000000 0.18555532 0.93730885
3820000000 0.60747355 0.52996421
3840000000 0.47956419 -0.28961009
3860000000 -0.48381463 -0.50255138
3880000000 -0.89019191 0.1786876
3900000000 -0.59362751 0.68781245
3920000000 -0.0077248244 0.77796036
3940000000 0.56574512 0.26614368
3960000000 0.33925429 -0.65628237
3980000000 -0.52925193 -0.7271384
4000000000 -0.8431161 -0.11774541
4020000000 -0.53390568 0.4484379
4040000000 0.19106315 0.59741026
4060000000 0.81209409 0.0036810124
4080000000 0.52759409 -0.80160785
4100000000 -0.22905029 -0.81782049
4120000000 -0.5819056 -0.19033892
4140000000 -0.28107345 0.49441588
4160000000 0.47144365 0.67857927
4180000000 1.0069197 0.13202301
4200000000 0.71576375 -0.57179064
4220000000 -0.082460292 -0.59043813
4240000000 -0.51028037 0.089254014
4260000000 -0.23813945 0.77178544
4280000000 0.40267226 0.9292711
4300000000 0.86718345 0.4375203
4320000000 0.57056957 -0.31163707
4340000000 -0.30628136 -0.36783344
4360000000 -0.73297644 0.26740053
4380000000 -0.5155921 0.84189689
4400000000 0.057835132 0.97992504
4420000000 0.56578976 0.44148889
4440000000 0.21538377 -0.40442494
4460000000 -0.62270612 -0.42186704
4480000000 -0.95837063 0.10727815
4500000000 -0.76085263 0.60926491
4520000000 -0.13662964 0.76966035
4540000000 0.468467 0.14150007
4560000000 0.079765402 -0.69827932
4580000000 -0.63522059 -0.68322253
4600000000 -0.92348504 -0.20046163
4620000000 -0.70046031 0.35815331
4640000000 0.071539998 0.54490852
4660000000 0.65538323 -0.19305052
4680000000 0.22037302 -0.88242304
4700000000 -0.40647915 -0.81228638
4720000000 -0.70379359 -0.28765881
4740000000 -0.45598596 0.3853333
4760000000 0.39174041 0.57835037
4780000000 0.88694495 -0.14002144
4800000000 0.45713162 -0.74076474
4820000000 -0.20663261 -0.67153788
4840000000 -0.59176993 -0.087978877
4860000000 -0.34684506 0.65442777
4880000000 0.47452465 0.78883892
4900000000 0.85126662 0.078989945
4920000000 0.383324 -0.5091185
4940000000 -0.3312481 -0.47540045
4960000000 -0.76831096 0.074928865
4980000000 -0.56884795 0.76696265
5000000000 0.19838782 0.87272209
5020000000 0.58390021 0.14272289
5040000000 0.14079265 -0.50825721
5060000000 -0.55232495 -0.54278439
5080000000 -0.96858323 -0.058000039
5100000000 -0.73777735 0.5884437
5120000000 0.081490949 0.62548041
5140000000 0.45132676 -0.14797732
5160000000 0.047449257 -0.75387943
5180000000 -0.54973036 -0.78754228
5200000000 -0.91577125 -0.32449269
5220000000 -0.63610458 0.35523826
5240000000 0.25524715 0.37116301
5260000000 0.59309387 -0.3750957
5280000000 0.23245528 -0.88933057
5300000000 -0.31469965 -0.89364427
5320000000 -0.68892264 -0.37563923
5340000000 -0.3379271 0.39134115
5360000000 0.56460822 0.33967784
5380000000 0.80204594 -0.33977669
5400000000 0.43757921 -0.77671582
5420000000 -0.14954284 -0.75359535
5440000000 -0.57781601 -0.13780667
5460000000 -0.14696817 0.65831667
5480000000 0.66771179 0.52351671
5500000000 0.830935 -0.10258576
5520000000 0.44763571 -0.55693966
5540000000 -0.23428014 -0.5672403
5560000000 -0.71307248 0.11924601
5580000000 -0.21673496 0.8428213
5600000000 0.50177485 0.62739897
5620000000 0.64567453 -0.0072406814
5640000000 0.25834775 -0.53840977
5660000000 -0.48050201 -0.59264886
5680000000 -0.91774029 0.10653076
5700000000 -0.38260952 0.72312403
5720000000 0.32442546 0.48204803
5740000000 0.52569175 -0.18220803
5760000000 0.16328378 -0.76370394
5780000000 -0.55120939 -0.79982698
5800000000 -0.89108419 -0.10681514
5820000000 -0.32708415 0.47752935
5840000000 0.41753197 0.26272091
5860000000 0.65836692 -0.38502055
5880000000 0.32110313 -0.92205018
5900000000 -0.34093428 -0.91004175
5920000000 -0.65076149 -0.19039623
5940000000 -0.054269671 0.42684942
5960000000 0.67585075 0.2068931
5980000000 0.85723889 -0.38420707
6000000000 0.5101009 -0.84026593
6020000000 -0.16661681 -0.78677028
6040000000 -0.47889933 0.013459879
6060000000 0.15963717 0.58969969
6080000000 0.7798568 0.34121975
6100000000 0.90410602 -0.18666115
6120000000 0.54369438 -0.64762837
6140000000 -0.237104 -0.58269709
6160000000 -0.4853504 0.31127995
6180000000 0.1591357 0.73427063
6200000000 0.66561675 0.47623289
6220000000 0.79076552 -0.04415866
6240000000 0.39158922 -0.5940733
6260000000 -0.50231981 -0.43944466
6280000000 -0.56358314 0.44280213
6300000000 0.023070646 0.72607303
6320000000 0.50966978 0.48926187
6340000000 0.70292532 -0.085787125
6360000000 0.21669261 -0.73182213
6380000000 -0.64924091 -0.4146848
6400000000 -0.58674783 0.34801602
6420000000 -0.044060022 0.62287295
6440000000 0.52109414 0.41488573
6460000000 0.75145918 -0.26723287
6480000000 0.13266398 -0.84420228
6500000000 -0.56997418 -0.4339273
6520000000 -0.51148009 0.26220828
6540000000 0.037482634 0.60873705
6560000000 0.67708951 0.38347965
6580000000 0.82015765 -0.3382417
6600000000 0.18812576 -0.77004325
6620000000 -0.45496711 -0.37306008
6640000000 -0.43496317 0.35326612
6660000000 0.14904168 0.72015256
6680000000 0.74523324 0.44536218
6700000000 0.81366378 -0.21248819
6720000000 0.2106656 -0.6241017
6740000000 -0.48554155 -0.22662857
6760000000 -0.43030518 0.53621972
6780000000 0.15176868 0.81636202
6800000000 0.65531081 0.53347975
6820000000 0.72654879 -0.09578862
6840000000 0.081682295 -0.55633771
6860000000 -0.62525666 -0.068921126
6880000000 -0.47201875 0.62096697
6900000000 0.044335876 0.82220799
6920000000 0.5294953 0.56861359
6940000000 0.63862592 -0.12769662
6960000000 -0.14192879 -0.57335055
6980000000 -0.70573437 0.011960914
7000000000 -0.51887167 0.57002276
7020000000 -0.053873423 0.77286655
7040000000 0.50173467 0.52987963
7060000000 0.5554136 -0.31479484
7080000000 -0.3158164 -0.55001348
7100000000 -0.69408798 0.0016132297
7120000000 -0.54690439 0.49399611
7140000000 -0.078145467 0.75873059
7160000000 0.58505237 0.4562771
7180000000 0.46084303 -0.44290638
7200000000 -0.31616718 -0.52048093
7220000000 -0.66244805 -0.055680864
7240000000 -0.57721454 0.46683288
7260000000 -0.043142479 0.80104667
7280000000 0.64714515 0.37932682
7300000000 0.42119262 -0.42677104
7320000000 -0.26125568 -0.51502186
7340000000 -0.66916966 -0.09206856
7360000000 -0.60778284 0.50957584
7380000000 0.017483143 0.83340198
7400000000 0.626531 0.33799255
7420000000 0.40003112 -0.38627613
7440000000 -0.27150816 -0.51797098
7460000000 -0.73019445 -0.062726624
7480000000 -0.61063933 0.57947409
7500000000 0.033933807 0.81760305
7520000000 0.57280177 0.32107913
7540000000 0.34159133 -0.40387326
7560000000 -0.38437989 -0.50757134
7580000000 -0.79154366 0.011037336
7600000000 -0.61124951 0.58918411
7620000000 -0.0086068613 0.7810204
7640000000 0.53260446 0.26909336
7660000000 0.22006667 -0.48668876
7680000000 -0.49847382 -0.48655355
7700000000 -0.81282711 -0.0034746067
7720000000 -0.65476507 0.51384288
7740000000 -0.038030736 0.72574955
7760000000 0.51491868 0.10676414
7780000000 0.096546791 -0.5761525
7800000000 -0.50333625 -0.53924567
7820000000 -0.80445236 -0.14562322
7840000000 -0.69561529 0.39895815
7860000000 0.033311553 0.62480539
7880000000 0.49371356 -0.10388388
7900000000 0.088163301 -0.64255208
7920000000 -0.41753533 -0.64492506
7940000000 -0.76220459 -0.27874601
7960000000 -0.62649447 0.37299323
7980000000 0.21406642 0.49296984
8000000000 0.53683406 -0.19974141
8020000000 0.21042269 -0.66790813
8040000000 -0.29855955 -0.71284199
8060000000 -0.71034628 -0.26688823
8080000000 -0.43896005 0.46542454
8100000000 0.36748555 0.44898286
8120000000 0.62771106 -0.15884553
8140000000 0.31755099 -0.6331203
8160000000 -0.27741164 -0.6694507
8180000000 -0.69638419 -0.10632207
8200000000 -0.35331193 0.58189762
8220000000 0.37158385 0.55233759
8240000000 0.64097863 -0.044380978
8260000000 0.27926788 -0.56935591
8280000000 -0.38264427 -0.56703132
8300000000 -0.76391476 0.0083082784
8320000000 -0.43658465 0.63609999
8340000000 0.27984434 0.58551663
8360000000 0.52390218 -0.07884644
8380000000 0.11447491 -0.59941357
8400000000 -0.50150388 -0.59865028
8420000000 -0.87115592 -0.098595083
8440000000 -0.55523121 0.52856511
8460000000 0.21299259 0.42985502
8480000000 0.42726582 -0.24944931
8500000000 0.083066761 -0.73026037
8520000000 -0.45804867 -0.78261501
8540000000 -0.84199035 -0.28900591
8560000000 -0.41720897 0.37085474
8580000000 0.3381981 0.17869683
8600000000 0.52623165 -0.40044951
8620000000 0.28326294 -0.83632666
8640000000 -0.24386741 -0.92333943
8660000000 -0.64657986 -0.32674855
8680000000 -0.1094219 0.31168017
8700000000 0.5478577 0.12705012
8720000000 0.75094348 -0.34571743
8740000000 0.53755158 -0.7835986
8760000000 -0.082082689 -0.84316105
8780000000 -0.43966687 -0.11669885
8800000000 0.091268629 0.44285566
8820000000 0.66771054 0.31976855
8840000000 0.88605684 -0.13287382
8860000000 0.60450947 -0.62352735
8880000000 -0.12481606 -0.59428495
8900000000 -0.40525627 0.15340771
8920000000 0.063095964 0.65071189
8940000000 0.61730111 0.54015577
8960000000 0.83050525 0.02332023
8980000000 0.46063834 -0.51197547
9000000000 -0.28342691 -0.44849804
9020000000 -0.55348241 0.243843
9040000000 -0.096994512 0.72651571
9060000000 0.49499637 0.56352347
9080000000 0.68623513 -0.029173966
9100000000 0.29467204 -0.56515402
9120000000 -0.41088882 -0.51747113
9140000000 -0.66845906 0.1588836
9160000000 -0.1581962 0.63597256
9180000000 0.4598375 0.43941593
9200000000 0.66972834 -0.13636899
9220000000 0.33752182 -0.66921258
9240000000 -0.36237523 -0.63189548
9260000000 -0.58257127 0.097337432
9280000000 -0.035790231 0.55500388
9300000000 0.55278558 0.39266074
9320000000 0.79127735 -0.1200772
9340000000 0.47497922 -0.6573419
9360000000 -0.26993299 -0.56250775
9380000000 -0.43728 0.19647954
9400000000 0.055247463 0.62735552
9420000000 0.59630948 0.52821749
9440000000 0.85409451 0.034087226
9460000000 0.48367694 -0.53652442
9480000000 -0.29161909 -0.38236731
9500000000 -0.44856894 0.32341161
9520000000 -0.034699477 0.74088728
9540000000 0.50215006 0.66431624
9560000000 0.76547551 0.10335647
9580000000 0.30363065 -0.48664781
9600000000 -0.43365508 -0.29565397
9620000000 -0.58011949 0.33366993
9640000000 -0.19070563 0.74111426
9660000000 0.38939908 0.65194947
9680000000 0.66635215 0.024378033
9700000000 0.1932818 -0.56127501
9720000000 -0.49050531 -0.38694668
9740000000 -0.63185227 0.21952647
9760000000 -0.21432446 0.650769
9780000000 0.41948941 0.55951649
9800000000 0.7124663 -0.070514359
9820000000 0.27204761 -0.6270681
9840000000 -0.38840371 -0.45179102
9860000000 -0.53611147 0.18646841
9880000000 -0.10587765 0.66227818
9900000000 0.53110594 0.6006794
9920000000 0.81461447 0.011396023
9940000000 0.3709808 -0.51470995
9960000000 -0.31357387 -0.31918231
9980000000 -0.48936462 0.33941481
10000000000 -0.1005153 0.82218343
10020000000 0.4854793 0.77616626
10040000000 0.73400068 0.19327603
10060000000 0.24240978 -0.3393105
10080000000 -0.46265256 -0.14513874
10100000000 -0.65844125 0.45557961
10120000000 -0.33547375 0.89264035
10140000000 0.22316603 0.83952487
10160000000 0.47240049 0.19866531
10180000000 -0.05154686 -0.36129814
10200000000 -0.7057988 -0.20285815
10220000000 -0.89430958 0.30029747
10240000000 -0.59356272 0.70906103
10260000000 0.020377487 0.64759243
10280000000 0.30823347 -0.049195725
10300000000 -0.16047496 -0.60511571
10320000000 -0.73465419 -0.50482595
10340000000 -0.91741019 -0.024910321
10360000000 -0.55484307 0.43423471
10380000000 0.15333399 0.34684542
10400000000 0.43988511 -0.32862803
10420000000 0.059463445 -0.82666397
10440000000 -0.48418987 -0.73839211
10460000000 -0.68114197 -0.17699906
10480000000 -0.25011504 0.36236596
10500000000 0.45803869 0.29676527
10520000000 0.74333709 -0.27669251
10540000000 0.39043516 -0.74869525
10560000000 -0.22917114 -0.61897296
10580000000 -0.44648579 0.044723921
10600000000 -0.034589857 0.59085584
10620000000 0.57979441 0.56950426
10640000000 0.8424859 0.040928926
10660000000 0.4145849 -0.46425545
10680000000 -0.29355592 -0.29232162
10700000000 -0.52046067 0.3489807
10720000000 -0.19220632 0.83122343
10740000000 0.3633247 0.8031525
10760000000 0.61130989 0.20442042
10780000000 0.11384124 -0.35254499
10800000000 -0.57220572 -0.217198
10820000000 -0.80887383 0.30643654
10840000000 -0.53225321 0.74746144
10860000000 0.06664896 0.71382409
10880000000 0.36565399 0.045691323
10900000000 -0.080228046 -0.5349102
10920000000 -0.68149918 -0.47577041
10940000000 -0.91393036 -0.011564841
10960000000 -0.60376716 0.4621771
10980000000 0.088629954 0.42287868
11000000000 0.41248295 -0.23870143
11020000000 0.055961322 -0.76818258
11040000000 -0.48732615 -0.7282325
11060000000 -0.72625422 -0.21219335
11080000000 -0.34372324 0.34338415
11100000000 0.37728831 0.29502332
11120000000 0.66471076 -0.28691941
11140000000 0.33824182 -0.75190592
11160000000 -0.24579456 -0.68011135
11180000000 -0.51516724 -0.05997115
11200000000 -0.11130302 0.51991266
11220000000 0.52530563 0.47954255
11240000000 0.77086383 -0.040614262
11260000000 0.40119579 -0.52686048
11280000000 -0.28842747 -0.42954513
11300000000 -0.55987233 0.21754551
11320000000 -0.20357864 0.71653128
11340000000 0.34943134 0.66565633
11360000000 0.59207618 0.10538379
11380000000 0.15249674 -0.4587453
11400000000 -0.55124772 -0.34664541
11420000000 -0.77179396 0.208266
11440000000 -0.45569569 0.62689584
11460000000 0.12277862 0.56546521
11480000000 0.41142195 -0.083791353
11500000000 -0.045347296 -0.65731239
11520000000 -0.64224166 -0.54804552
11540000000 -0.81454182 -0.067529283
11560000000 -0.47442031 0.36584234
11580000000 0.20701303 0.29714349
11600000000 0.48882005 -0.39019126
11620000000 0.07049904 -0.86159819
11640000000 -0.43125391 -0.74070907
11660000000 -0.60144991 -0.23424742
11680000000 -0.20660728 0.29038751
11700000000 0.5266341 0.19732669
11720000000 0.72635454 -0.42765638
11740000000 0.33520809 -0.79684073
