!Keysight Technologies E5080B MY59100652 A.14.10.03
!Date: Monday  May 23  2022 11:51:32
!Correction: a2/b2 P1 
!S1P File: Measurement: :
# Hz S  RI   R 50
100000000 0.032897826 -0.030819166
120000000 0.022663752 -0.040945321
140000000 0.010213856 -0.046700187
160000000 -0.003336516 -0.048473187
180000000 -0.016459513 -0.046068046
200000000 -0.028138308 -0.040227897
220000000 -0.037801553 -0.031656042
240000000 -0.044729874 -0.020841571
260000000 -0.048512787 -0.0087886443
280000000 -0.049098805 0.0036094692
300000000 -0.046590757 0.015622399
320000000 -0.041214112 0.026554352
340000000 -0.033393271 0.035725355
360000000 -0.023685081 0.042680364
380000000 -0.012681394 0.047077861
400000000 -0.0010313519 0.04871662
420000000 0.010646897 0.04753672
440000000 0.021665893 0.043648344
460000000 0.0314398 0.03728012
480000000 0.039418999 0.028841209
500000000 0.045235425 0.018766731
520000000 0.048521314 0.0075978232
540000000 0.049135085 -0.0040495167
560000000 0.046988979 -0.015566895
580000000 0.042208754 -0.026299398
600000000 0.03503409 -0.035657723
620000000 0.025819391 -0.043138064
640000000 0.015070974 -0.048259918
660000000 0.0033696247 -0.050758142
680000000 -0.0086717596 -0.050483346
700000000 -0.020399772 -0.047415916
720000000 -0.031199999 -0.041649286
740000000 -0.040454831 -0.03348545
760000000 -0.047659922 -0.023270512
780000000 -0.052346595 -0.011530688
800000000 -0.054196853 0.0011310733
820000000 -0.053028714 0.014078746
840000000 -0.048798785 0.026562206
860000000 -0.0416416 0.037885714
880000000 -0.03185362 0.047359776
900000000 -0.019887676 0.054359477
920000000 -0.0063440953 0.058393255
940000000 0.0080244439 0.059083197
960000000 0.022375122 0.056228075
980000000 0.035861976 0.049868837
1000000000 0.047605418 0.040270064
1020000000 0.056809779 0.02786522
1040000000 0.062803552 0.01335487
1060000000 0.065083347 -0.0024570972
1080000000 0.063350588 -0.018577723
1100000000 0.057599921 -0.034050696
1120000000 0.047986295 -0.04781016
1140000000 0.0351316 -0.058893248
1160000000 0.01970092 -0.066475384
1180000000 0.0026521101 -0.069993027
1200000000 -0.014958654 -0.069139056
1220000000 -0.031877659 -0.063735001
1240000000 -0.047031723 -0.054199126
1260000000 -0.059308138 -0.041095007
1280000000 -0.067897029 -0.0252633
1300000000 -0.072306097 -0.0077065416
1320000000 -0.07218264 0.010226033
1340000000 -0.067761369 0.027518241
1360000000 -0.059416454 0.043255243
1380000000 -0.047623876 0.056672189
1400000000 -0.032883037 0.067136496
1420000000 -0.015781512 0.074070819
1440000000 0.002899782 0.076720141
1460000000 0.022088928 0.074639119
1480000000 0.040536355 0.067694418
1500000000 0.056907322 0.056135409
1520000000 0.070025265 0.040540114
1540000000 0.078901663 0.021901952
1560000000 0.08284393 0.0013678098
1580000000 0.081413753 -0.019768652
1600000000 0.074622929 -0.040060431
1620000000 0.062786758 -0.058167558
1640000000 0.046593159 -0.072845779
1660000000 0.027053948 -0.083047964
1680000000 0.005354722 -0.088009089
1700000000 -0.017114211 -0.087302022
1720000000 -0.038834192 -0.080863424
1740000000 -0.058320098 -0.069042847
1760000000 -0.074272014 -0.052554369
1780000000 -0.08559528 -0.032455601
1800000000 -0.091494776 -0.010065501
1820000000 -0.091592997 0.013200312
1840000000 -0.085750677 0.035980884
1860000000 -0.074153408 0.056592081
1880000000 -0.057647616 0.073556527
1900000000 -0.037347171 0.085742816
1920000000 -0.014594547 0.092343859
1940000000 0.0090524079 0.092953302
1960000000 0.031986255 0.087559223
1980000000 0.052761517 0.07660412
2000000000 0.07007388 0.060858998
2020000000 0.082809575 0.041421831
2040000000 0.090350829 0.019567354
2060000000 0.092321917 -0.00337018
2080000000 0.088719949 -0.026034249
2100000000 0.079808995 -0.047201719
2120000000 0.066097297 -0.065798067
2140000000 0.048127439 -0.080745339
2160000000 0.026835186 -0.091017701
2180000000 0.0033661546 -0.095832266
2200000000 -0.020963464 -0.094727658
2220000000 -0.044674583 -0.087460786
2240000000 -0.066175871 -0.074199803
2260000000 -0.083847165 -0.055595648
2280000000 -0.096288867 -0.032711253
2300000000 -0.10236342 -0.0071033053
2320000000 -0.10147474 0.019435536
2340000000 -0.093593262 0.044871442
2360000000 -0.079331636 0.067303605
2380000000 -0.059851203 0.085141897
2400000000 -0.036746044 0.097284362
2420000000 -0.011694867 0.1032465
2440000000 0.013838986 0.10308607
2460000000 0.038646419 0.096944317
2480000000 0.061482154 0.085015118
2500000000 0.081041977 0.067699753
2520000000 0.095966652 0.045737155
2540000000 0.10501146 0.020348165
2560000000 0.10730848 -0.006878159
2580000000 0.10243221 -0.034092806
2600000000 0.090556249 -0.05933623
2620000000 0.072310708 -0.080769345
2640000000 0.048930008 -0.096722201
2660000000 0.022064595 -0.105892
2680000000 -0.006242313 -0.10758138
2700000000 -0.033797514 -0.1016141
2720000000 -0.058441997 -0.088642865
2740000000 -0.078407452 -0.070021488
2760000000 -0.092663012 -0.047460832
2780000000 -0.10075155 -0.022658521
2800000000 -0.10273769 0.0029376862
2820000000 -0.098745182 0.028118029
2840000000 -0.088933483 0.051689874
2860000000 -0.073659435 0.072385527
2880000000 -0.053593252 0.088907517
2900000000 -0.029831044 0.10003004
2920000000 -0.0038506649 0.10487851
2940000000 0.02269347 0.10298461
2960000000 0.047976006 0.094421007
2980000000 0.070338041 0.079644009
3000000000 0.088211551 0.059657801
3020000000 0.10039528 0.03582231
3040000000 0.10612953 0.0097339908
3060000000 0.10508413 -0.016876092
3080000000 0.097389005 -0.042251263
3100000000 0.083668016 -0.064721137
3120000000 0.064900815 -0.082899608
3140000000 0.042430222 -0.095743664
3160000000 0.017701445 -0.10264907
3180000000 -0.0077275401 -0.10330112
3200000000 -0.032354534 -0.09785676
3220000000 -0.054893006 -0.086760245
3240000000 -0.074167214 -0.070630461
3260000000 -0.089111462 -0.050245933
3280000000 -0.09873113 -0.026644517
3300000000 -0.10228832 -0.0012044368
3320000000 -0.099362902 0.024558617
3340000000 -0.089957193 0.048916139
3360000000 -0.07457339 0.070241474
3380000000 -0.054177634 0.087033026
3400000000 -0.030048804 0.098085679
3420000000 -0.0038003682 0.10261682
3440000000 0.022789137 0.10025351
3460000000 0.047867894 0.091163307
3480000000 0.069805577 0.075952202
3500000000 0.087149449 0.055625238
3520000000 0.098702893 0.031558715
3540000000 0.10370786 0.0053572594
3560000000 0.10187983 -0.021241022
3580000000 0.093326941 -0.046457373
3600000000 0.078688145 -0.06861876
3620000000 0.058993116 -0.086207621
3640000000 0.035562802 -0.098194748
3660000000 0.0099574048 -0.1038443
3680000000 -0.016087061 -0.10283605
3700000000 -0.040894978 -0.095390715
3720000000 -0.062842846 -0.082068406
3740000000 -0.080645829 -0.063785963
3760000000 -0.093242846 -0.041849084
3780000000 -0.09995269 -0.017626388
3800000000 -0.10046148 0.0073221782
3820000000 -0.094814926 0.031475909
3840000000 -0.083436511 0.053361658
3860000000 -0.067089103 0.071622811
3880000000 -0.046834983 0.085175067
3900000000 -0.023985298 0.093165286
3920000000 -1.9923647e-005 0.095144734
3940000000 0.023471439 0.091088563
3960000000 0.045020353 0.081372
3980000000 0.063329741 0.066711091
4000000000 0.077266917 0.048118498
4020000000 0.086062141 0.026847441
4040000000 0.08923921 0.0042462843
4060000000 0.086736314 -0.018260505
4080000000 0.078780301 -0.03927552
4100000000 0.065960348 -0.057546791
4120000000 0.049136575 -0.071989678
4140000000 0.029373009 -0.081764616
4160000000 0.0078993719 -0.086309895
4180000000 -0.013936416 -0.085392445
4200000000 -0.034808576 -0.079117745
4220000000 -0.053390075 -0.067944221
4240000000 -0.068567805 -0.052535579
4260000000 -0.079393879 -0.033908959
4280000000 -0.085231438 -0.01324466
4300000000 -0.085742213 0.0081208441
4320000000 -0.080933385 0.028833559
4340000000 -0.071235247 0.047574107
4360000000 -0.057304297 0.063244045
4380000000 -0.040051375 0.074900694
4400000000 -0.020598494 0.081941679
4420000000 -0.00017923406 0.084012933
4440000000 0.019995285 0.081078745
4460000000 0.038776968 0.073388204
4480000000 0.055090632 0.061462075
4500000000 0.067999527 0.045972083
4520000000 0.076756068 0.027783936
4540000000 0.080847554 0.0079841958
4560000000 0.079934381 -0.012291132
4580000000 0.073964328 -0.031760812
4600000000 0.063257813 -0.04917733
4620000000 0.048417374 -0.063361026
4640000000 0.030403959 -0.073285505
4660000000 0.010405339 -0.078227393
4680000000 -0.010181895 -0.07782691
4700000000 -0.029901614 -0.07202249
4720000000 -0.047333263 -0.061288338
4740000000 -0.061154287 -0.046493292
4760000000 -0.070497878 -0.028745517
4780000000 -0.074734531 -0.0094691273
4800000000 -0.073806129 0.0098798275
4820000000 -0.068068862 0.027838912
4840000000 -0.05824754 0.043353647
4860000000 -0.045284696 0.055630375
4880000000 -0.030149654 0.064230695
4900000000 -0.013762979 0.068958625
4920000000 0.0030033027 0.069724992
4940000000 0.019318668 0.066610903
4960000000 0.034360923 0.059786391
4980000000 0.047294062 0.04964098
5000000000 0.057355005 0.036739297
5020000000 0.063977383 0.02189162
5040000000 0.066779196 0.0059778322
5060000000 0.065651789 -0.010020225
5080000000 0.060745738 -0.025170036
5100000000 0.052368421 -0.038556412
5120000000 0.041087065 -0.049454965
5140000000 0.0276157 -0.057210222
5160000000 0.012773211 -0.061455406
5180000000 -0.0025047492 -0.061975356
5200000000 -0.017358467 -0.058781713
5220000000 -0.030918805 -0.052132018
5240000000 -0.042363241 -0.042446963
5260000000 -0.05104414 -0.030304691
5280000000 -0.056442678 -0.016499856
5300000000 -0.058287699 -0.001865756
5320000000 -0.056494515 0.012699384
5340000000 -0.051181879 0.026288914
5360000000 -0.042698767 0.038095105
5380000000 -0.03160698 0.047350094
5400000000 -0.018637152 0.053513337
5420000000 -0.0046319109 0.056246817
5440000000 0.0094957324 0.055363618
5460000000 0.022858141 0.051020343
5480000000 0.034556307 0.043562654
5500000000 0.043937124 0.033526335
5520000000 0.050440144 0.021653548
5540000000 0.053773265 0.0087298797
5560000000 0.053821012 -0.0044213538
5580000000 0.050697386 -0.017001657
5600000000 0.04473336 -0.028240319
5620000000 0.036349017 -0.037550826
5640000000 0.026158625 -0.044394571
5660000000 0.01483946 -0.048514027
5680000000 0.0031237437 -0.049752381
5700000000 -0.008283223 -0.048224166
5720000000 -0.018672917 -0.04411377
5740000000 -0.027590238 -0.03787053
5760000000 -0.034583744 -0.029995559
5780000000 -0.039433233 -0.021064207
5800000000 -0.042091046 -0.011653201
5820000000 -0.04268083 -0.0022340512
5840000000 -0.04143754 0.0067978692
5860000000 -0.038564552 0.01519566
5880000000 -0.034284111 0.022828465
5900000000 -0.028659383 0.029611493
5920000000 -0.021741306 0.035402037
5940000000 -0.013495968 0.039913632
5960000000 -0.0040503507 0.042701747
5980000000 0.0062793973 0.043287791
6000000000 0.016931564 0.04128442
6020000000 0.027144486 0.036484793
6040000000 0.036028042 0.028976861
6060000000 0.042805299 0.01919394
6080000000 0.046852004 0.0078069712
6100000000 0.047766462 -0.004361114
6120000000 0.045498334 -0.016383462
6140000000 0.040223759 -0.027436839
6160000000 0.032363363 -0.036762882
6180000000 0.022444274 -0.043790016
6200000000 0.011165115 -0.048136938
6220000000 -0.00073557912 -0.049610116
6240000000 -0.012587715 -0.048187274
6260000000 -0.023731317 -0.044026528
6280000000 -0.033533141 -0.037379291
6300000000 -0.04153388 -0.028648648
6320000000 -0.047290646 -0.018267725
6340000000 -0.050504524 -0.0067854919
6360000000 -0.050973173 0.0052154944
6380000000 -0.048608355 0.017092891
6400000000 -0.043454722 0.028186876
6420000000 -0.035731327 0.037851952
6440000000 -0.025786255 0.045460612
6460000000 -0.014189519 0.05048519
6480000000 -0.0016250368 0.052540626
6500000000 0.011170958 0.05144472
6520000000 0.023406575 0.047219533
6540000000 0.034271456 0.040063035
6560000000 0.043085635 0.030414632
6580000000 0.049260017 0.018841857
6600000000 0.052399434 0.0060373861
6620000000 0.052262541 -0.0071980106
6640000000 0.04881788 -0.020001084
6660000000 0.042291392 -0.031581201
6680000000 0.033049423 -0.041183915
6700000000 0.021711281 -0.048205428
6720000000 0.0089402311 -0.052162085
6740000000 -0.0044117095 -0.052800614
6760000000 -0.017499981 -0.050084885
6780000000 -0.029459454 -0.044190224
6800000000 -0.039574567 -0.035523105
6820000000 -0.0471524 -0.024676181
6840000000 -0.051804747 -0.012339492
6860000000 -0.053289089 0.00068954617
6880000000 -0.051565874 0.013598481
6900000000 -0.046815783 0.025650753
6920000000 -0.039363604 0.036160849
6940000000 -0.029661665 0.044565905
6960000000 -0.018302748 0.050460503
6980000000 -0.0058738468 0.053544849
7000000000 0.0069489195 0.053697195
7020000000 0.019566942 0.050874174
7040000000 0.031312495 0.045169778
7060000000 0.041583288 0.036744408
7080000000 0.049708977 0.025950668
7100000000 0.055151585 0.013232598
7120000000 0.057351414 -0.00075878605
7140000000 0.05593922 -0.015173716
7160000000 0.050744794 -0.029044548
7180000000 0.041950766 -0.041267704
7200000000 0.030080201 -0.050828759
7220000000 0.016006744 -0.05687381
7240000000 0.00085263135 -0.058931891
7260000000 -0.014178207 -0.056902025
7280000000 -0.027948175 -0.05109062
7300000000 -0.039602105 -0.042111114
7320000000 -0.048527315 -0.030703777
7340000000 -0.054328628 -0.017631231
7360000000 -0.056810237 -0.0036415562
7380000000 -0.055870198 0.010498083
7400000000 -0.051522292 0.024025129
7420000000 -0.043946523 0.036127597
7440000000 -0.033557765 0.045994323
7460000000 -0.020956807 0.05297922
7480000000 -0.0069763609 0.056523405
7500000000 0.0074336585 0.056375422
7520000000 0.021270953 0.052574307
7540000000 0.033626311 0.045444574
7560000000 0.043699652 0.035526596
7580000000 0.050919354 0.023485973
7600000000 0.054929662 0.010143449
7620000000 0.055537999 -0.0036573701
7640000000 0.052779038 -0.017111698
7660000000 0.046863392 -0.029449008
7680000000 0.038160048 -0.039930694
7700000000 0.027194826 -0.047964104
7720000000 0.014625289 -0.053108431
7740000000 0.0011786924 -0.055018682
7760000000 -0.012344344 -0.053622197
7780000000 -0.025115103 -0.048955802
7800000000 -0.036390543 -0.041276306
7820000000 -0.045453079 -0.031020422
7840000000 -0.051723149 -0.018829282
7860000000 -0.054770879 -0.0054345271
7880000000 -0.054389521 0.0083410051
7900000000 -0.050593689 0.021589726
7920000000 -0.043546718 0.033480603
7940000000 -0.033744492 0.043239757
7960000000 -0.02181565 0.050182983
7980000000 -0.0085316813 0.053874865
8000000000 0.0051918318 0.054103971
8020000000 0.01845389 0.050850306
8040000000 0.030400855 0.044417948
8060000000 0.040272042 0.035238862
8080000000 0.047484122 0.024000676
8100000000 0.05165856 0.011427023
8120000000 0.052577339 -0.0016737202
8140000000 0.050294373 -0.014487618
8160000000 0.044979345 -0.026283294
8180000000 0.037021603 -0.036375925
8200000000 0.026890028 -0.044171371
8220000000 0.015216243 -0.049272515
8240000000 0.002718458 -0.051360257
8260000000 -0.009891985 -0.050384752
8280000000 -0.021842897 -0.046401124
8300000000 -0.032487649 -0.039658323
8320000000 -0.041182142 -0.030557705
8340000000 -0.04745128 -0.019627536
8360000000 -0.0509024 -0.0074758381
8380000000 -0.051322766 0.005250501
8400000000 -0.04860517 0.017753052
8420000000 -0.04285289 0.029319666
8440000000 -0.034332644 0.039167717
8460000000 -0.023552276 0.046643861
8480000000 -0.011122658 0.051207107
8500000000 0.0021535992 0.052448742
8520000000 0.015380091 0.050229199
8540000000 0.027652871 0.044640966
8560000000 0.038091056 0.036038991
8580000000 0.045909386 0.024998741
8600000000 0.050580718 0.012328481
8620000000 0.051755141 -0.0010994176
8640000000 0.049379192 -0.014299519
8660000000 0.0436767 -0.026316149
8680000000 0.035101194 -0.036328282
8700000000 0.024324693 -0.043704376
8720000000 0.012159388 -0.04795485
8740000000 -0.00055519352 -0.048915017
8760000000 -0.012895786 -0.046617713
8780000000 -0.024096103 -0.041281532
8800000000 -0.033440396 -0.033411745
8820000000 -0.040377326 -0.023560954
8840000000 -0.044589836 -0.012437392
8860000000 -0.045830879 -0.00075289141
8880000000 -0.044169772 0.010760657
8900000000 -0.03970322 0.02140685
8920000000 -0.032773573 0.03052016
8940000000 -0.023829207 0.037555866
8960000000 -0.013423413 0.042064056
8980000000 -0.0022920624 0.04375051
9000000000 0.0088318102 0.042511001
9020000000 0.019141998 0.038480535
9040000000 0.027934356 0.031960633
9060000000 0.034624312 0.023505243
9080000000 0.038798619 0.013790687
9100000000 0.040279713 0.0035502554
9120000000 0.039089337 -0.0064800861
9140000000 0.035484303 -0.015623128
9160000000 0.029835843 -0.023346834
9180000000 0.022661922 -0.029210821
9200000000 0.014498375 -0.03302151
9220000000 0.0059100948 -0.03465911
9240000000 -0.0025640742 -0.034199808
9260000000 -0.01048393 -0.031785786
9280000000 -0.017424382 -0.027636351
9300000000 -0.023012556 -0.022065053
9320000000 -0.027036533 -0.015429058
9340000000 -0.029221544 -0.0081786513
9360000000 -0.029565511 -0.00079883233
9380000000 -0.02813106 0.0062667825
9400000000 -0.025127169 0.012586463
9420000000 -0.020792684 0.017848589
9440000000 -0.015479228 0.021823384
9460000000 -0.0095183142 0.024370274
9480000000 -0.0032864455 0.025374141
9500000000 0.0028775311 0.024883714
9520000000 0.0086237146 0.022978319
9540000000 0.01362884 0.019838369
9560000000 0.017606148 0.01568977
9580000000 0.020398742 0.010831429
9600000000 0.021946145 0.0055999733
9620000000 0.022205934 0.00032925344
9640000000 0.02125827 -0.0047163717
9660000000 0.01925021 -0.009277313
9680000000 0.016355608 -0.013154296
9700000000 0.012756208 -0.016196551
9720000000 0.008694577 -0.018334713
9740000000 0.0043690782 -0.019497067
9760000000 -2.2062461e-005 -0.019692948
9780000000 -0.0042629871 -0.018981269
9800000000 -0.0082198652 -0.017383853
9820000000 -0.011702633 -0.015016126
9840000000 -0.014580684 -0.011973993
9860000000 -0.016729157 -0.0084025441
9880000000 -0.018043373 -0.0044425409
9900000000 -0.018454505 -0.00028441014
9920000000 -0.017926417 0.0039014276
9940000000 -0.016427319 0.007845182
9960000000 -0.014018559 0.011322334
9980000000 -0.010850389 0.014123214
10000000000 -0.007124268 0.016034516
10020000000 -0.00308501 0.016998984
10040000000 0.00096325169 0.016896132
10060000000 0.0047595594 0.015842665
10080000000 0.008104289 0.013986922
10100000000 0.01081779 0.011489723
10120000000 0.012809035 0.0085591078
10140000000 0.014061717 0.0053719701
10160000000 0.014572115 0.0021316437
10180000000 0.014408475 -0.0010343042
10200000000 0.013662228 -0.0040209154
10220000000 0.012353139 -0.0067353146
10240000000 0.010574074 -0.009085739
10260000000 0.0084080305 -0.011044444
10280000000 0.0059062541 -0.01254105
10300000000 0.0031710805 -0.013535859
10320000000 0.00026054104 -0.013947511
10340000000 -0.0027096933 -0.013806262
10360000000 -0.0056255516 -0.013021647
10380000000 -0.0083435345 -0.011654275
10400000000 -0.010763166 -0.0096927211
10420000000 -0.012750662 -0.0072178855
10440000000 -0.014161031 -0.0043665073
10460000000 -0.01495632 -0.0012089063
10480000000 -0.015056568 0.0020790901
10500000000 -0.014451182 0.0053643552
10520000000 -0.013142767 0.0085096434
10540000000 -0.011159199 0.011352994
10560000000 -0.008570211 0.013793725
10580000000 -0.0054209805 0.015680641
10600000000 -0.001816717 0.016884103
10620000000 0.0020969661 0.0172977
10640000000 0.0061516222 0.01680818
10660000000 0.010170759 0.015325344
10680000000 0.013892008 0.012871841
10700000000 0.01703942 0.0094209909
10720000000 0.01936955 0.0051897466
10740000000 0.020570038 0.00031680297
10760000000 0.020537838 -0.0049070995
10780000000 0.019112319 -0.010104424
10800000000 0.016314356 -0.014875412
10820000000 0.012274713 -0.018843723
10840000000 0.0072520925 -0.021676717
10860000000 0.0016042403 -0.023091203
10880000000 -0.004277647 -0.023010781
10900000000 -0.0099452073 -0.02139109
10920000000 -0.015024571 -0.018372629
10940000000 -0.019172067 -0.014211768
10960000000 -0.022152351 -0.0091793099
10980000000 -0.02381452 -0.0036026798
11000000000 -0.024137026 0.0022147666
11020000000 -0.023093721 0.0079646064
11040000000 -0.020718476 0.013365649
11060000000 -0.017104661 0.018150184
11080000000 -0.012374705 0.022023246
