!Keysight Technologies E5080B MY59100652 A.14.10.03
!Date: Monday  May 23  2022 11:51:32
!Correction: a1/b1 P2 
!S1P File: Measurement: :
# Hz S  RI   R 50
100000000 0.037566517 -0.027337722
120000000 0.029922877 -0.037669573
140000000 0.019966448 -0.044908229
160000000 0.0085568177 -0.049055561
180000000 -0.0033896014 -0.050230362
200000000 -0.015045945 -0.048423931
220000000 -0.025650796 -0.04345626
240000000 -0.034513075 -0.03676502
260000000 -0.041700747 -0.028409068
280000000 -0.046889275 -0.018595709
300000000 -0.049748767 -0.0080187684
320000000 -0.050179448 0.0028230827
340000000 -0.048299819 0.013392259
360000000 -0.044251863 0.023214001
380000000 -0.038290244 0.031855538
400000000 -0.030749287 0.039002366
420000000 -0.021962818 0.044402983
440000000 -0.012339354 0.04787292
460000000 -0.0022641306 0.04933016
480000000 0.0078335907 0.048730701
500000000 0.017573357 0.04612432
520000000 0.026578443 0.04163539
540000000 0.034494992 0.035456046
560000000 0.041034006 0.027840782
580000000 0.045955356 0.019059386
600000000 0.049051724 0.0094414307
620000000 0.05018704 -0.00061778299
640000000 0.049289376 -0.010767306
660000000 0.04636807 -0.020566449
680000000 0.04153157 -0.029636875
700000000 0.034945939 -0.037631765
720000000 0.026865171 -0.044195946
740000000 0.017580101 -0.049060442
760000000 0.0074177072 -0.052016977
780000000 -0.003227242 -0.05292464
800000000 -0.013961584 -0.051682089
820000000 -0.024346435 -0.048291516
840000000 -0.033994496 -0.042808305
860000000 -0.042460863 -0.035414379
880000000 -0.049381834 -0.026308957
900000000 -0.054384079 -0.015877265
920000000 -0.057204884 -0.0044193692
940000000 -0.057617288 0.0075736647
960000000 -0.055531017 0.019603929
980000000 -0.050930094 0.031127438
1000000000 -0.043901447 0.041627213
1020000000 -0.034660455 0.050584763
1040000000 -0.023565134 0.057514716
1060000000 -0.011058123 0.06200261
1080000000 0.0023552717 0.0637796
1100000000 0.016061468 0.062632002
1120000000 0.029434312 0.058481239
1140000000 0.041768704 0.051461596
1160000000 0.052424248 0.041819233
1180000000 0.060838059 0.029912518
1200000000 0.066560157 0.016266564
1220000000 0.069071807 0.0015640743
1240000000 0.068350807 -0.013443857
1260000000 0.064286016 -0.027941311
1280000000 0.057132475 -0.041225642
1300000000 0.047241781 -0.052679926
1320000000 0.035311706 -0.061631098
1340000000 0.021914354 -0.067938641
1360000000 0.0074979886 -0.071513183
1380000000 -0.0073989537 -0.07221061
1400000000 -0.022402577 -0.069939435
1420000000 -0.036985256 -0.064575493
1440000000 -0.050398067 -0.056065645
1460000000 -0.061921902 -0.04464021
1480000000 -0.070833303 -0.03080212
1500000000 -0.07662078 -0.015075815
1520000000 -0.078844398 0.0017566957
1540000000 -0.077304028 0.018864747
1560000000 -0.072009116 0.035365082
1580000000 -0.063174278 0.050454382
1600000000 -0.051169313 0.063389339
1620000000 -0.036480043 0.073456593
1640000000 -0.019821042 0.080133781
1660000000 -0.0019850249 0.083060436
1680000000 0.016222907 0.082021177
1700000000 0.033910263 0.076999649
1720000000 0.050217349 0.068157993
1740000000 0.064297929 0.055847596
1760000000 0.07540933 0.040656142
1780000000 0.083002731 0.023230277
1800000000 0.086575843 0.004419826
1820000000 0.085888863 -0.014845128
1840000000 0.080901429 -0.033544119
1860000000 0.071858257 -0.050774742
1880000000 0.059166804 -0.065580375
1900000000 0.043479703 -0.077214636
1920000000 0.025673119 -0.085070372
1940000000 0.0065937396 -0.088791884
1960000000 -0.01272982 -0.088285141
1980000000 -0.031385522 -0.08365158
2000000000 -0.048497666 -0.075256802
2020000000 -0.063360319 -0.063635089
2040000000 -0.075571001 -0.049298599
2060000000 -0.084658965 -0.032766588
2080000000 -0.090325341 -0.014651261
2100000000 -0.092313543 0.0044428455
2120000000 -0.090361878 0.023888024
2140000000 -0.084308743 0.042853132
2160000000 -0.074213058 0.060402103
2180000000 -0.060342878 0.075639889
2200000000 -0.043241609 0.087694347
2220000000 -0.023587568 0.095829673
2240000000 -0.0023590617 0.099487849
2260000000 0.019359089 0.098371767
2280000000 0.040468331 0.092451878
2300000000 0.059952892 0.081918053
2320000000 0.076744229 0.067221187
2340000000 0.089986578 0.049064107
2360000000 0.098956153 0.02829833
2380000000 0.10312206 0.0059511052
2400000000 0.10223844 -0.016907642
2420000000 0.09630654 -0.039125986
2440000000 0.085579336 -0.059552588
2460000000 0.070589624 -0.077161752
2480000000 0.052011672 -0.091123939
2500000000 0.030715981 -0.10074013
2520000000 0.0077109099 -0.10550001
2540000000 -0.015886391 -0.10509536
2560000000 -0.038972821 -0.099499948
2580000000 -0.06044586 -0.088900268
2600000000 -0.079234771 -0.073619433
2620000000 -0.094212145 -0.054382876
2640000000 -0.1045573 -0.032122836
2660000000 -0.10964941 -0.008022516
2680000000 -0.10921109 0.016678652
2700000000 -0.10328219 0.040735088
2720000000 -0.092111811 0.06289991
2740000000 -0.076268807 0.082091995
2760000000 -0.056489732 0.097344339
2780000000 -0.033752803 0.10783681
2800000000 -0.009196789 0.1130409
2820000000 0.015891705 0.11264994
2840000000 0.040291037 0.10670082
2860000000 0.062780306 0.095464826
2880000000 0.082235552 0.079542346
2900000000 0.097653404 0.059688367
2920000000 0.10824662 0.036965981
2940000000 0.11355138 0.012529013
2960000000 0.1133243 -0.012468411
2980000000 0.10759728 -0.036659386
3000000000 0.096717857 -0.058892109
3020000000 0.081281051 -0.078089915
3040000000 0.06209445 -0.093305953
3060000000 0.040153474 -0.10389297
3080000000 0.016585311 -0.10934236
3100000000 -0.0074545117 -0.10948722
3120000000 -0.030777989 -0.10437354
3140000000 -0.052190762 -0.094367333
3160000000 -0.070704296 -0.080058463
3180000000 -0.085465647 -0.062250003
3200000000 -0.095876217 -0.041902758
3220000000 -0.10160131 -0.020056713
3240000000 -0.10253634 0.0022105186
3260000000 -0.098842211 0.02392472
3280000000 -0.09082403 0.044224527
3300000000 -0.07888405 0.062340707
3320000000 -0.063475728 0.077635817
3340000000 -0.045173988 0.08941637
3360000000 -0.024650929 0.097145528
3380000000 -0.0028157076 0.10033633
3400000000 0.019371374 0.098721415
3420000000 0.040841945 0.092176072
3440000000 0.060420036 0.08098276
3460000000 0.077041961 0.065615639
3480000000 0.089787908 0.04683074
3500000000 0.097929411 0.02568795
3520000000 0.10096048 0.0033342279
3540000000 0.098868936 -0.018880453
3560000000 0.091923498 -0.039808501
3580000000 0.080710873 -0.058412388
3600000000 0.066011533 -0.07388933
3620000000 0.048639014 -0.085662529
3640000000 0.029520839 -0.093438365
3660000000 0.0094803143 -0.097099498
3680000000 -0.010703941 -0.096661262
3700000000 -0.030303095 -0.092238307
3720000000 -0.048582181 -0.083959445
3740000000 -0.064849094 -0.072098516
3760000000 -0.078382283 -0.057072319
3780000000 -0.088495925 -0.039439693
3800000000 -0.094677567 -0.019995509
3820000000 -0.096555501 0.00042410946
3840000000 -0.093993098 0.020767879
3860000000 -0.087102629 0.040065803
3880000000 -0.076261893 0.057368062
3900000000 -0.061992668 0.07189586
3920000000 -0.044997357 0.082982987
3940000000 -0.026106261 0.090111941
3960000000 -0.0061704889 0.093052089
3980000000 0.013860797 0.091660626
4000000000 0.033051074 0.086043999
4020000000 0.050587457 0.076557018
4040000000 0.065663882 0.063595004
4060000000 0.077639505 0.047700394
4080000000 0.085957833 0.029607188
4100000000 0.090188116 0.010108729
4120000000 0.090177938 -0.0099032056
4140000000 0.085784048 -0.029481668
4160000000 0.077218331 -0.047653642
4180000000 0.064863712 -0.063543662
4200000000 0.049314961 -0.076368056
4220000000 0.031290323 -0.085493237
4240000000 0.0117049 -0.090428561
4260000000 -0.0084942691 -0.090946972
4280000000 -0.028303877 -0.087034144
4300000000 -0.046782605 -0.078851238
4320000000 -0.062966228 -0.066802345
4340000000 -0.076092266 -0.051529914
4360000000 -0.0855226 -0.033775151
4380000000 -0.090827078 -0.014455974
4400000000 -0.091771297 0.0054600523
4420000000 -0.088337891 0.025026981
4440000000 -0.080762282 0.043262605
4460000000 -0.069494314 0.059339877
4480000000 -0.055101562 0.072519772
4500000000 -0.03830985 0.082232445
4520000000 -0.019936312 0.088032372
4540000000 -0.00089755916 0.089738071
4560000000 0.017948797 0.087365769
4580000000 0.035715751 0.081086017
4600000000 0.051616248 0.071194492
4620000000 0.064946771 0.058245417
4640000000 0.075148717 0.042862196
4660000000 0.081794009 0.02575295
4680000000 0.084646322 0.007739895
4700000000 0.083569989 -0.010375088
4720000000 0.078690931 -0.027751323
4740000000 0.070255734 -0.043589521
4760000000 0.058688462 -0.057185579
4780000000 0.044521645 -0.06790141
4800000000 0.028440606 -0.075300574
4820000000 0.011222464 -0.079038456
4840000000 -0.0063256207 -0.078944281
4860000000 -0.023344127 -0.075047448
4880000000 -0.039046071 -0.067567229
4900000000 -0.052662551 -0.056863561
4920000000 -0.063545026 -0.043513134
4940000000 -0.071182527 -0.028184695
4960000000 -0.075213872 -0.011643973
4980000000 -0.07547795 0.0052691516
5000000000 -0.071998946 0.021706702
5020000000 -0.065047063 0.036778048
5040000000 -0.055012401 0.049783275
5060000000 -0.042517852 0.060107362
5080000000 -0.02827719 0.06732551
5100000000 -0.013074812 0.071162902
5120000000 0.0022644184 0.07163284
5140000000 0.017045463 0.068894893
5160000000 0.030669438 0.063247934
5180000000 0.042607401 0.055106632
5200000000 0.052465294 0.044882357
5220000000 0.059984028 0.033086769
5240000000 0.06496828 0.020179119
5260000000 0.067259334 0.0066533252
5280000000 0.066794366 -0.0069363434
5300000000 0.063617781 -0.02008912
5320000000 0.05793355 -0.032261547
5340000000 0.049959525 -0.043020517
5360000000 0.04001103 -0.051912729
5380000000 0.028511474 -0.058618382
5400000000 0.015914075 -0.062844411
5420000000 0.0027133471 -0.06439209
5440000000 -0.01051538 -0.063182779
5460000000 -0.02320197 -0.059283406
5480000000 -0.034789477 -0.05283273
5500000000 -0.044749402 -0.044147648
5520000000 -0.052647766 -0.033547342
5540000000 -0.058185589 -0.021554984
5560000000 -0.061036427 -0.0086952718
5580000000 -0.061103586 0.0044589192
5600000000 -0.058395065 0.017272104
5620000000 -0.053037941 0.029231559
5640000000 -0.045265954 0.039724596
5660000000 -0.03545234 0.048298795
5680000000 -0.024097815 0.054529462
5700000000 -0.01169699 0.058174457
5720000000 0.0011372506 0.059068345
5740000000 0.013806259 0.057172082
5760000000 0.025711277 0.052626979
5780000000 0.036304478 0.045672033
5800000000 0.045083389 0.036646537
5820000000 0.051673528 0.026010957
5840000000 0.055791561 0.014335535
5860000000 0.057303362 0.0021441076
5880000000 0.05618827 -0.0099870432
5900000000 0.052568961 -0.021490565
5920000000 0.04665944 -0.031827062
5940000000 0.038804106 -0.040603828
5960000000 0.02941221 -0.047465708
5980000000 0.018909173 -0.052162994
6000000000 0.0078334073 -0.054558851
6020000000 -0.0033737775 -0.054625448
6040000000 -0.01421095 -0.052449279
6060000000 -0.024280889 -0.048183382
6080000000 -0.033190548 -0.042042576
6100000000 -0.040604535 -0.034349106
6120000000 -0.046314441 -0.025386782
6140000000 -0.050054263 -0.015567693
6160000000 -0.051771101 -0.0052611507
6180000000 -0.051383931 0.0051175659
6200000000 -0.048969295 0.015123213
6220000000 -0.044633895 0.024358399
6240000000 -0.038579028 0.032507531
6260000000 -0.031102069 0.039220609
6280000000 -0.022489024 0.04425855
6300000000 -0.013162635 0.047474604
6320000000 -0.0034379081 0.04878246
6340000000 0.0062585892 0.048175097
6360000000 0.015542619 0.04573971
6380000000 0.024110699 0.041613813
6400000000 0.031713411 0.036004655
6420000000 0.038155086 0.029120918
6440000000 0.043243311 0.021166084
6460000000 0.046869963 0.012373315
6480000000 0.04887528 0.0029044992
6500000000 0.04909553 -0.0070121381
6520000000 0.047361206 -0.017052757
6540000000 0.043548845 -0.026835844
6560000000 0.03763134 -0.035889871
6580000000 0.029703829 -0.043669105
6600000000 0.020093832 -0.049693849
6620000000 0.0092166616 -0.053539086
6640000000 -0.002401494 -0.054935299
6660000000 -0.014162745 -0.053782716
6680000000 -0.025519455 -0.050119031
6700000000 -0.035957057 -0.044049513
6720000000 -0.044937711 -0.035834812
6740000000 -0.052068852 -0.025769344
6760000000 -0.05691294 -0.014254738
6780000000 -0.059189051 -0.0018330653
6800000000 -0.05871759 0.010922283
6820000000 -0.05544854 0.023373805
6840000000 -0.049490057 0.03488563
6860000000 -0.041154746 0.044848774
6880000000 -0.030817296 0.052820645
6900000000 -0.018977216 0.058371186
6920000000 -0.0062236995 0.06125699
6940000000 0.0068912376 0.061377745
6960000000 0.019725483 0.058723301
6980000000 0.031728543 0.053426076
7000000000 0.04238965 0.0457072
7020000000 0.051221248 0.035915814
7040000000 0.057863668 0.024454422
7060000000 0.062003694 0.011795224
7080000000 0.063408501 -0.0015420828
7100000000 0.061987717 -0.015010147
7120000000 0.057769369 -0.0279771
7140000000 0.050802253 -0.039896753
7160000000 0.041402459 -0.050168909
7180000000 0.029886138 -0.058304127
7200000000 0.016732132 -0.063866273
7220000000 0.0025143726 -0.066500418
7240000000 -0.012111969 -0.065960407
7260000000 -0.026443826 -0.062162299
7280000000 -0.03976104 -0.055227745
7300000000 -0.051325761 -0.04540772
7320000000 -0.060468573 -0.033065263
7340000000 -0.066661052 -0.018872829
7360000000 -0.069476023 -0.0035513768
7380000000 -0.068734713 0.012124656
7400000000 -0.064409368 0.027252445
7420000000 -0.05675023 0.041044213
7440000000 -0.04616446 0.052705776
7460000000 -0.033210509 0.061654057
7480000000 -0.018622141 0.0674178
7500000000 -0.0031509141 0.069772393
7520000000 0.012370172 0.068612687
7540000000 0.027198697 0.064024389
7560000000 0.040547747 0.056313179
7580000000 0.051836595 0.045880381
7600000000 0.060477 0.033299536
7620000000 0.066151179 0.019181736
7640000000 0.068589993 0.0042303898
7660000000 0.067687698 -0.010826179
7680000000 0.063554011 -0.025253421
7700000000 0.056414045 -0.038390324
7720000000 0.046652507 -0.049621064
7740000000 0.034710933 -0.058419224
7760000000 0.021213759 -0.064429499
7780000000 0.0067612315 -0.067383915
7800000000 -0.0079092616 -0.067174971
7820000000 -0.022158423 -0.063789591
7840000000 -0.035346676 -0.057405118
7860000000 -0.04681411 -0.048376773
7880000000 -0.056074988 -0.037081003
7900000000 -0.062688723 -0.024064645
7920000000 -0.066285849 -0.0098876394
7940000000 -0.066675887 0.0047100326
7960000000 -0.063852526 0.019033654
7980000000 -0.057944119 0.03233403
8000000000 -0.049260683 0.043976538
8020000000 -0.038260914 0.053339034
8040000000 -0.025559332 0.059998013
8060000000 -0.011792052 0.063679382
8080000000 0.0024062197 0.06421224
8100000000 0.016250614 0.061643068
8120000000 0.029092759 0.05607947
8140000000 0.040309533 0.047890823
8160000000 0.049362112 0.037495293
8180000000 0.05580752 0.025482448
8200000000 0.059413865 0.012471059
8220000000 0.060034826 -0.00087092287
8240000000 0.057752725 -0.013866676
8260000000 0.052757565 -0.025944859
8280000000 0.045326713 -0.036542214
8300000000 0.035841592 -0.045176979
8320000000 0.024791697 -0.051488802
8340000000 0.012733747 -0.055195823
8360000000 0.00025366165 -0.056183208
8380000000 -0.01204348 -0.054425314
8400000000 -0.023560194 -0.050038818
8420000000 -0.033769213 -0.043313663
8440000000 -0.042195462 -0.034546934
8460000000 -0.048450533 -0.024243562
8480000000 -0.05225528 -0.012880616
8500000000 -0.053461634 -0.0010568011
8520000000 -0.052044764 0.01065079
8540000000 -0.048099507 0.021671012
8560000000 -0.041877702 0.031462926
8580000000 -0.03371758 0.039570183
8600000000 -0.024067076 0.045619857
8620000000 -0.013426287 0.049343411
8640000000 -0.0023642387 0.050616778
8660000000 0.0085548107 0.04943534
8680000000 0.018842652 0.045939047
8700000000 0.02796481 0.040358908
8720000000 0.035567183 0.033058174
8740000000 0.041330241 0.024380725
8760000000 0.045007776 0.014796987
8780000000 0.046508927 0.0048078042
8800000000 0.045830354 -0.005157291
8820000000 0.043045711 -0.014585887
8840000000 0.038363572 -0.023066074
8860000000 0.032044619 -0.030225649
8880000000 0.024428198 -0.035763197
8900000000 0.015944464 -0.039453827
8920000000 0.0069977785 -0.041164622
8940000000 -0.0019350939 -0.040900268
8960000000 -0.010426548 -0.038741108
8980000000 -0.018093009 -0.034870211
9000000000 -0.024600163 -0.029514939
9020000000 -0.029672088 -0.023022236
9040000000 -0.033142816 -0.015714973
9060000000 -0.034895882 -0.00805155
9080000000 -0.034943562 -0.00036241132
9100000000 -0.033353452 0.0069624125
9120000000 -0.030293306 0.013609928
9140000000 -0.026010353 0.01926104
9160000000 -0.020750206 0.023741581
9180000000 -0.014838604 0.026887264
9200000000 -0.008568095 0.028659215
9220000000 -0.0022669395 0.029052258
9240000000 0.0037783482 0.028131695
9260000000 0.0093280207 0.026014367
9280000000 0.014146855 0.022887176
9300000000 0.018084228 0.018953132
9320000000 0.021018457 0.014444591
9340000000 0.022883551 0.0095830075
9360000000 0.023664901 0.0046095024
9380000000 0.023426708 -0.00023234799
9400000000 0.022237595 -0.0047289715
9420000000 0.020248331 -0.008718756
9440000000 0.017619394 -0.012094865
9460000000 0.014510538 -0.014754026
9480000000 0.011100573 -0.016682433
9500000000 0.0075557721 -0.01784228
9520000000 0.0040349104 -0.018314827
9540000000 0.00065074046 -0.018149935
9560000000 -0.0024669706 -0.017408643
9580000000 -0.0052890815 -0.016198374
9600000000 -0.0077400608 -0.014623572
9620000000 -0.0098071825 -0.012778388
9640000000 -0.011479488 -0.010744645
9660000000 -0.012784442 -0.0085829375
9680000000 -0.013773205 -0.0063505508
9700000000 -0.014457387 -0.0040784073
9720000000 -0.014862163 -0.0017606597
9740000000 -0.01499611 0.0006048556
9760000000 -0.01484052 0.0030071866
9780000000 -0.014373513 0.0054561105
9800000000 -0.013560118 0.0079147527
9820000000 -0.012300326 0.01036647
9840000000 -0.010612019 0.012715084
9860000000 -0.0084137749 0.014855227
9880000000 -0.0057020471 0.016719434
9900000000 -0.0025145516 0.018081781
9920000000 0.00108964 0.01887206
9940000000 0.0049903383 0.018925367
9960000000 0.0090068681 0.01810704
9980000000 0.012966122 0.016384739
10000000000 0.016601849 0.013730601
10020000000 0.019700367 0.010163419
10040000000 0.021986773 0.0058799316
10060000000 0.023290206 0.0010281699
10080000000 0.023464138 -0.0041462742
10100000000 0.022424011 -0.0093276752
10120000000 0.020181084 -0.014246715
10140000000 0.016799957 -0.01857063
10160000000 0.012475941 -0.022035647
10180000000 0.0074014347 -0.024462752
10200000000 0.0018554981 -0.0256452
10220000000 -0.0037879092 -0.025518892
10240000000 -0.0092995539 -0.024098655
10260000000 -0.014316706 -0.021473482
10280000000 -0.018569609 -0.017772622
10300000000 -0.021824995 -0.013228764
10320000000 -0.023955865 -0.0081115616
10340000000 -0.024859229 -0.0027397566
10360000000 -0.024496784 0.0026101775
10380000000 -0.022990404 0.0076015298
10400000000 -0.020488042 0.012047839
10420000000 -0.017171809 0.015694344
10440000000 -0.013308954 0.018501038
10460000000 -0.0090897847 0.020340957
10480000000 -0.0047584707 0.021261975
10500000000 -0.00050164957 0.021315364
10520000000 0.0035574669 0.020609343
10540000000 0.0072937575 0.019205401
10560000000 0.010626317 0.017259099
10580000000 0.013491068 0.014827804
10600000000 0.015884753 0.011987754
10620000000 0.017751694 0.0088012153
10640000000 0.019058272 0.0053808992
10660000000 0.019786162 0.0017939211
10680000000 0.019900767 -0.0018892344
10700000000 0.019381046 -0.0055905255
10720000000 0.018207354 -0.0091902008
10740000000 0.016402237 -0.012595217
10760000000 0.013967047 -0.015691852
10780000000 0.010935093 -0.018359471
10800000000 0.0073889107 -0.020471744
10820000000 0.0034243641 -0.021918649
10840000000 -0.00086267618 -0.022633351
10860000000 -0.005335622 -0.022508714
10880000000 -0.009808098 -0.0214715
10900000000 -0.014125138 -0.01955989
10920000000 -0.018069215 -0.016751686
10940000000 -0.021487081 -0.013078002
10960000000 -0.024164164 -0.0086763212
10980000000 -0.025926057 -0.0037114304
11000000000 -0.026647594 0.0016669572
11020000000 -0.026234265 0.0072362055
11040000000 -0.024604376 0.012726183
11060000000 -0.02179208 0.017867623
11080000000 -0.017842824 0.022413108
