!Keysight Technologies,E5080B,MY59100652,A.14.10.03
!Date: Wednesday, May 25, 2022 15:44:09
!Correction: S11(Off) 
!S21(Off) 
!S12(Off) 
!S22(Off) 
!S2P File: Measurement: :
# Hz S  RI   R 50
100000000 0.041380558 0.076146096 0.4792805 0.83375806 0.47908059 0.83367229 0.015077462 0.065088086
120000000 -0.040387813 0.046056177 0.9621793 0.0080306632 0.9613241 0.0087503903 -0.034562189 0.026913553
140000000 -0.041378092 0.13011423 0.48485491 -0.82502049 0.48541683 -0.82512146 -0.060662925 0.087086037
160000000 -0.013636745 0.046106126 -0.46245822 -0.8328734 -0.4618625 -0.8318072 -0.02126462 0.042445615
180000000 -0.14633539 0.06401021 -0.95436603 -0.019051271 -0.95394731 -0.021584861 -0.099247329 0.025438575
200000000 -0.053103775 0.14583847 -0.49067414 0.80644995 -0.49170229 0.80818534 -0.051783875 0.076151416
220000000 -0.038587902 -0.016463021 0.4430733 0.83610439 0.4434005 0.83523601 -0.018953839 -0.047443077
240000000 -0.1646322 0.022061609 0.94545203 0.036474869 0.94506401 0.037576701 -0.12739353 -0.034560453
260000000 -0.05080555 0.037725344 0.5074445 -0.79301798 0.50750291 -0.79260993 -0.031558212 0.00088116981
280000000 -0.1125375 -0.096752025 -0.43156648 -0.842076 -0.42915437 -0.84179014 -0.046204593 -0.11267783
300000000 -0.15171829 0.0162671 -0.9357723 -0.047555629 -0.93652427 -0.049337421 -0.087139912 -0.020832885
320000000 0.0026986019 -0.03461127 -0.52028692 0.77713209 -0.51972121 0.77686101 0.073219016 -0.037339907
340000000 -0.062410861 -0.1352448 0.41169178 0.84446239 0.40982348 0.84299809 0.028345272 -0.15480737
360000000 -0.031687774 -0.062015992 0.93318224 0.071255006 0.93138224 0.072875366 0.01174102 -0.056846034
380000000 0.031309072 -0.15325677 0.53322536 -0.77294987 0.53403091 -0.77028549 0.11064083 -0.092498817
400000000 -0.046192639 -0.12111191 -0.39808536 -0.84284288 -0.39547333 -0.84306097 0.023292176 -0.094106369
420000000 0.068194091 -0.041887335 -0.92582589 -0.087625623 -0.92501694 -0.088432819 0.091763504 0.04950602
440000000 0.11655384 -0.11834384 -0.54395562 0.7566703 -0.54279399 0.75397372 0.19378324 -0.014747241
460000000 0.1095578 -0.073944986 0.37861532 0.84994847 0.37480104 0.84817654 0.12288576 -0.012178596
480000000 0.17832714 -0.096333988 0.92277533 0.099537976 0.92098874 0.10210656 0.16145498 0.038966674
500000000 0.097088084 -0.097022451 0.55009955 -0.73984885 0.55070084 -0.73796719 0.10766035 -0.0048579499
520000000 0.12265641 0.037985135 -0.35816321 -0.85091984 -0.35703745 -0.85002148 0.027220415 0.11486294
540000000 0.18766087 0.02931552 -0.91530156 -0.11871485 -0.91247779 -0.11787479 0.10630119 0.17291179
560000000 0.15640622 0.079841167 -0.56246912 0.7298094 -0.56136942 0.72541457 0.084049784 0.13365623
580000000 0.23572613 0.097684473 0.34708202 0.84665471 0.34394646 0.84702641 0.074522085 0.15688075
600000000 0.1545938 0.011927943 0.89634299 0.1338634 0.89688879 0.13395098 0.053405888 0.068134986
620000000 0.036603346 0.13206629 0.57620263 -0.70535624 0.57452726 -0.70572072 -0.10403393 0.066778943
640000000 0.088676624 0.19416159 -0.32208964 -0.85426337 -0.32262689 -0.85182291 -0.11465534 0.16245258
660000000 0.029444981 0.18749662 -0.89922869 -0.15085281 -0.89603251 -0.15086891 -0.091764823 0.12449262
680000000 0.044932593 0.26896825 -0.57665467 0.69821328 -0.57913536 0.6964739 -0.10609103 0.12039658
700000000 0.085894346 0.16745538 0.30193013 0.84440231 0.30345437 0.84753978 -0.040137455 0.044679761
720000000 -0.064211145 0.10434765 0.88451642 0.17346509 0.88592589 0.16972411 -0.11910321 -0.097070739
740000000 -0.12844664 0.16413957 0.59614998 -0.67967701 0.59302831 -0.67864746 -0.21240048 -0.061846752
760000000 -0.16276234 0.15109399 -0.28859803 -0.85638565 -0.28530371 -0.85502052 -0.16733749 -0.046452828
780000000 -0.1883447 0.19515964 -0.87923896 -0.17918299 -0.87961745 -0.18365732 -0.15305887 -0.056007911
800000000 -0.10774533 0.15162586 -0.60030538 0.66017896 -0.60426724 0.66204917 -0.052963443 -0.040830903
820000000 -0.14288901 0.024094101 0.26529038 0.85680431 0.26672709 0.85842627 0.031138387 -0.16184783
840000000 -0.19386351 -0.002722797 0.87479073 0.20161578 0.87288535 0.20158228 -0.023492785 -0.21317464
860000000 -0.20819959 -0.062060293 0.61332989 -0.65415925 0.61553657 -0.64986563 -0.0052142725 -0.17261243
880000000 -0.26588821 -0.053176574 -0.25441536 -0.8530854 -0.24941903 -0.85714895 0.0090174079 -0.15888791
900000000 -0.18062842 -0.0090139639 -0.85951012 -0.21742623 -0.86399251 -0.22118376 0.049066141 -0.055432312
920000000 -0.090650536 -0.099271074 -0.62758052 0.6333977 -0.62696445 0.63660473 0.20337966 -0.038568154
940000000 -0.071393147 -0.15727001 0.23254128 0.86183709 0.23166688 0.85721141 0.21958217 -0.11857462
960000000 -0.030480631 -0.22830148 0.86053175 0.23081321 0.85504222 0.23576352 0.17741144 -0.082053699
980000000 -0.091425702 -0.26055902 0.62785965 -0.61982709 0.63309079 -0.6168077 0.16596195 -0.054365497
1000000000 -0.064721428 -0.14425567 -0.20751162 -0.85539544 -0.20729934 -0.85845 0.086135574 0.02559066
1020000000 0.076849595 -0.13082156 -0.84935606 -0.2567496 -0.84967017 -0.25321096 0.12093466 0.1764867
1040000000 0.12431204 -0.15337889 -0.64833963 0.60614419 -0.64181036 0.60353172 0.19898249 0.17366561
1060000000 0.2023585 -0.14293641 0.19846626 0.86269045 0.19382808 0.85730702 0.15350838 0.14721914
1080000000 0.20972708 -0.20478681 0.8363871 0.26210475 0.83592367 0.26500008 0.10958949 0.14838032
1100000000 0.13344161 -0.13229807 0.65377867 -0.58117253 0.65243608 -0.58597249 0.0041284463 0.12704872
1120000000 0.17720905 -0.014780642 -0.17146084 -0.8630144 -0.18009256 -0.85867095 -0.10211197 0.22122473
1140000000 0.20616965 0.043234203 -0.83209068 -0.28564829 -0.82518947 -0.27516696 -0.063946225 0.28093424
1160000000 0.26957905 0.12905349 -0.66059011 0.57518125 -0.65598017 0.56937701 -0.053333346 0.22410582
1180000000 0.32794347 0.075730935 0.15756011 0.85043889 0.15902786 0.8533318 -0.07079339 0.16797879
1200000000 0.20436256 0.056037195 0.81043404 0.30358195 0.81776506 0.29651254 -0.1051503 0.057579529
1220000000 0.13382828 0.16516721 0.67463493 -0.55107933 0.66661632 -0.56167281 -0.23354837 -0.0033922305
1240000000 0.090978511 0.22139598 -0.13927397 -0.85850394 -0.14773385 -0.85070151 -0.28469831 0.04945283
1260000000 0.063804887 0.34323323 -0.80619532 -0.30536214 -0.80420804 -0.30624264 -0.23112935 0.057124488
1280000000 0.16586158 0.34211272 -0.66633689 0.52793348 -0.67490566 0.53724205 -0.16061378 0.018277084
1300000000 0.091476552 0.20881039 0.10802014 0.84896111 0.12097184 0.85982466 -0.072672643 -0.07572712
1320000000 -0.032517582 0.22641295 0.79446316 0.33290306 0.80877066 0.32308853 -0.068646178 -0.21831802
1340000000 -0.092815168 0.1836552 0.68363333 -0.52128106 0.67682725 -0.53083473 -0.14390458 -0.2528618
1360000000 -0.26029879 0.22406431 -0.10975888 -0.84152257 -0.10475172 -0.84751338 -0.13819355 -0.17930801
1380000000 -0.19766943 0.35052702 -0.76439404 -0.33794317 -0.78574473 -0.34776109 -0.042142522 -0.12054716
1400000000 -0.094921336 0.20098849 -0.69553965 0.48603228 -0.70456553 0.50689059 0.090036981 -0.10643448
1420000000 -0.19824149 0.084434003 0.077630229 0.85397583 0.089280553 0.86535805 0.19939439 -0.1729721
1440000000 -0.20165408 0.032144312 0.77908051 0.35765681 0.78509247 0.35455567 0.18881065 -0.23387396
1460000000 -0.30868021 -0.10038179 0.68866622 -0.49686345 0.7009877 -0.4903608 0.14595695 -0.20440613
1480000000 -0.40861297 0.013184291 -0.069957659 -0.82535958 -0.060577355 -0.85032749 0.097269535 -0.1202392
1500000000 -0.22148617 0.050648864 -0.74610299 -0.38007849 -0.76638496 -0.38677767 0.11198144 0.050237838
1520000000 -0.15668049 -0.12344901 -0.71505886 0.46617305 -0.7215445 0.47132933 0.25078639 0.11910908
1540000000 -0.15007287 -0.14705887 0.048794057 0.85228854 0.041149206 0.85553551 0.2619082 0.055538885
1560000000 -0.052543446 -0.2754555 0.76335412 0.37783393 0.75758702 0.39837092 0.18870373 0.070807651
1580000000 -0.18400477 -0.36638942 0.69380778 -0.45572913 0.72322094 -0.44952491 0.10992757 0.069916211
1600000000 -0.19075526 -0.19253044 -0.017401669 -0.82914281 -0.018699808 -0.84890288 -0.054976877 0.1562717
1620000000 0.003321857 -0.15826179 -0.74030799 -0.41603732 -0.73849946 -0.41294283 -0.043327458 0.33173484
1640000000 0.073143855 -0.20285839 -0.7328518 0.43727571 -0.73228407 0.42374292 0.031705435 0.28410375
1660000000 0.17139702 -0.19829455 0.01386915 0.85389978 -0.0013840263 0.84986234 -0.052877501 0.22521839
1680000000 0.1978845 -0.28872219 0.73525363 0.41052756 0.73124295 0.42499277 -0.064566419 0.19215171
1700000000 0.10002828 -0.24268574 0.72761488 -0.41124552 0.72982168 -0.41883597 -0.185267 0.045944698
1720000000 0.10461077 -0.092689864 0.021705598 -0.84428465 0.0071494118 -0.82447857 -0.37344792 0.12869141
1740000000 0.16802709 0.027634079 -0.72328848 -0.44802108 -0.69532263 -0.43772826 -0.27519432 0.21542634
1760000000 0.28154218 0.095008537 -0.75039029 0.40161353 -0.7424047 0.38555661 -0.2166598 0.073623188
1780000000 0.31918243 0.039813142 -0.034448039 0.84455109 -0.034645651 0.83449876 -0.24255688 0.030368567
1800000000 0.22925568 0.050600555 0.70864767 0.46180061 0.70747775 0.44801804 -0.15039982 -0.082304232
1820000000 0.16619819 0.10027559 0.75685912 -0.3782424 0.7252993 -0.38786221 -0.25631353 -0.24597196
1840000000 0.034609161 0.17901887 0.056033045 -0.84082437 0.050872415 -0.80621022 -0.32995424 -0.14236434
1860000000 0.030337811 0.38080654 -0.69054335 -0.47196054 -0.67763162 -0.47103167 -0.17520113 -0.099027187
1880000000 0.15290481 0.35732391 -0.75689256 0.34690097 -0.75226057 0.35765275 -0.10097098 -0.1618446
1900000000 0.045529619 0.25551113 -0.088325903 0.83460993 -0.067968331 0.83380777 0.0013593215 -0.14336237
1920000000 -0.026011288 0.28788254 0.67920899 0.49391428 0.6890344 0.46745479 0.11531753 -0.26087964
1940000000 -0.11100534 0.18241702 0.7613889 -0.33866313 0.74056751 -0.34375548 0.019410072 -0.30741891
1960000000 -0.33279493 0.25649926 0.092546955 -0.81164104 0.095884353 -0.81984901 0.0074280859 -0.15069903
1980000000 -0.25098529 0.39713103 -0.63817775 -0.50218529 -0.67094648 -0.50347114 0.11176217 -0.062464751
2000000000 -0.1784053 0.23200877 -0.76969081 0.2975409 -0.77569407 0.33056569 0.16421084 0.010878903
2020000000 -0.27926031 0.16908626 -0.12442431 0.81710821 -0.098917097 0.83681393 0.27957213 0.070932522
2040000000 -0.22431344 0.082677945 0.64627421 0.51168323 0.66199213 0.5028984 0.30569842 -0.0020546401
2060000000 -0.37214833 -0.094075508 0.74734664 -0.29794535 0.77297884 -0.30468732 0.17261316 0.018054787
2080000000 -0.47970745 0.037030298 0.14084028 -0.78035271 0.13318913 -0.82846695 0.091839753 0.14883594
2100000000 -0.28865543 0.046240099 -0.61072099 -0.53494781 -0.65135235 -0.53420949 0.060363401 0.26286122
2120000000 -0.25809744 -0.10948174 -0.77121991 0.26979235 -0.78696305 0.29292464 0.073070899 0.35842147
2140000000 -0.19844638 -0.12099391 -0.14899325 0.80391163 -0.14635709 0.82028073 0.11142329 0.34705818
2160000000 -0.10711034 -0.30660874 0.61799043 0.51381207 0.62755537 0.54297203 0.061466884 0.25679839
2180000000 -0.25162038 -0.37641215 0.74052137 -0.2514641 0.7848953 -0.26417118 -0.08152657 0.1810931
2200000000 -0.22336613 -0.2273486 0.17911765 -0.77634549 0.16918166 -0.8055315 -0.25934955 0.20974125
2220000000 -0.068753533 -0.22166012 -0.59640706 -0.54986846 -0.60037184 -0.55457592 -0.29361224 0.30688554
2240000000 0.012518145 -0.21308587 -0.77541327 0.24567834 -0.78569186 0.23238285 -0.2346369 0.26490501
2260000000 0.16791838 -0.24213482 -0.16618259 0.79077101 -0.19527124 0.79665351 -0.23926203 0.17282486
2280000000 0.1732493 -0.35571918 0.58320761 0.53527027 0.58930564 0.56675041 -0.20386754 0.057939619
2300000000 0.09816125 -0.29628077 0.76550025 -0.21955858 0.77362806 -0.22432594 -0.2805067 -0.13612561
2320000000 0.11964476 -0.18007973 0.1997719 -0.78253967 0.20609766 -0.76396769 -0.42320502 -0.12203592
2340000000 0.16249637 -0.057799079 -0.58235341 -0.56799001 -0.55228883 -0.57908255 -0.33288708 -0.052572172
2360000000 0.29511768 0.033091374 -0.77850199 0.22331999 -0.78417414 0.19228733 -0.22890884 -0.13310966
2380000000 0.36559975 -0.02208936 -0.20312724 0.77370322 -0.22227858 0.77577114 -0.14165109 -0.15157878
2400000000 0.29566246 -0.039042588 0.56001461 0.57527184 0.55791801 0.56673855 0.02045623 -0.28742117
2420000000 0.20076926 0.0036934847 0.78589904 -0.19096667 0.75381607 -0.1787665 -0.052483913 -0.4421666
2440000000 0.079588525 0.13017215 0.2324359 -0.78030497 0.24841385 -0.74529028 -0.11325151 -0.32508576
2460000000 0.10650989 0.30993587 -0.55538851 -0.58979601 -0.53349441 -0.59651184 0.017466154 -0.23607305
2480000000 0.18108559 0.30490449 -0.78818256 0.17237045 -0.78445077 0.16875395 0.08533898 -0.18919601
2500000000 0.13096857 0.2663984 -0.25440821 0.77075678 -0.23534277 0.76090896 0.24882407 -0.10433833
2520000000 0.089682758 0.21829788 0.53497076 0.609231 0.5192284 0.57678783 0.35645324 -0.21777385
2540000000 -0.081124559 0.13496931 0.79736036 -0.15235996 0.7718997 -0.1374858 0.22651994 -0.22479822
2560000000 -0.24415846 0.25415945 0.270248 -0.75907385 0.27276447 -0.75361741 0.19238739 -0.055743549
2580000000 -0.19075528 0.31128332 -0.51032805 -0.62246472 -0.52174026 -0.61310101 0.20106772 0.03388356
2600000000 -0.19844876 0.23539111 -0.79979557 0.12683649 -0.78690153 0.15083545 0.19281891 0.19096373
2620000000 -0.17760313 0.18975291 -0.29209739 0.7514528 -0.26668411 0.7367183 0.31924522 0.2503387
2640000000 -0.18130173 -0.01375175 0.499152 0.62726605 0.48744494 0.61949009 0.29077217 0.13710898
2660000000 -0.3786687 -0.096597835 0.78182244 -0.1067515 0.79752678 -0.10870428 0.11729842 0.14462517
2680000000 -0.38805428 -0.016742118 0.31656998 -0.72601891 0.30464238 -0.74967337 0.012254625 0.21061991
2700000000 -0.32550985 -0.091653273 -0.47359189 -0.64078492 -0.49529582 -0.63598102 -0.088080861 0.27608329
2720000000 -0.31343961 -0.091465682 -0.78628218 0.086254425 -0.79053533 0.10042571 -0.090453438 0.35652003
2740000000 -0.12400479 -0.16020292 -0.31417054 0.72126108 -0.32371658 0.72885442 -0.036342971 0.29042631
2760000000 -0.118696 -0.39821333 0.44882044 0.61851686 0.46646827 0.65453136 -0.078505538 0.13952781
2780000000 -0.22273885 -0.39883262 0.76085418 -0.05290287 0.80040926 -0.073748276 -0.20089275 0.012691023
2800000000 -0.14818843 -0.34683478 0.34260643 -0.69403142 0.33991903 -0.721066 -0.34688079 -0.0098581826
2820000000 -0.100997 -0.33861023 -0.42831811 -0.64273387 -0.4427087 -0.66054535 -0.35837415 0.042702951
2840000000 0.032110244 -0.24912995 -0.77150017 0.054961368 -0.79713017 0.046788663 -0.27816334 0.0072182301
2860000000 0.22163536 -0.33043078 -0.32558686 0.67866176 -0.35852811 0.71226329 -0.19037992 -0.054776005
2880000000 0.21651405 -0.42773166 0.39971334 0.62359488 0.43297502 0.65674675 -0.062917866 -0.21369725
2900000000 0.18036634 -0.38846487 0.74854779 -0.020129371 0.76701713 -0.029953206 -0.12735781 -0.40968347
2920000000 0.16644084 -0.29168537 0.36527017 -0.66513777 0.38213962 -0.67237806 -0.21740533 -0.34979662
2940000000 0.22299093 -0.12957881 -0.40422335 -0.64943659 -0.39829326 -0.67774624 -0.096997268 -0.27545094
2960000000 0.36339873 -0.055357695 -0.75244808 0.030441176 -0.78500122 0.011585957 -0.023456253 -0.26137722
2980000000 0.43581572 -0.05543939 -0.35098231 0.65378535 -0.36507103 0.68188375 0.16174257 -0.17006521
3000000000 0.45345688 -0.085535519 0.37297523 0.63225061 0.37703013 0.63397968 0.3463974 -0.33149368
3020000000 0.3248778 -0.10078224 0.7492286 0.01420964 0.74551427 0.032160748 0.2088605 -0.41067567
3040000000 0.20184311 0.091608033 0.38748914 -0.66373605 0.41043767 -0.65758198 0.18659641 -0.20562063
3060000000 0.2701802 0.22119841 -0.38273123 -0.65895414 -0.37189862 -0.67707741 0.26772043 -0.16386099
3080000000 0.24954338 0.25691256 -0.76346511 0.0038992583 -0.77318466 0.0007326444 0.20536923 0.0052863108
3100000000 0.29891634 0.32224435 -0.36967218 0.64451188 -0.36102504 0.63358897 0.43534604 0.16146985
3120000000 0.29178339 0.15990309 0.34257996 0.66228515 0.31660521 0.65077162 0.4944019 -0.025208544
3140000000 -0.011669497 0.1367012 0.77719527 0.036214691 0.76935232 0.060636923 0.25068939 0.0042609405
3160000000 -0.06478256 0.34523851 0.41130504 -0.65707952 0.42092484 -0.64951694 0.24838461 0.15688862
3180000000 -0.055107538 0.2871573 -0.36628351 -0.69529986 -0.36193839 -0.69249594 0.12073301 0.13234852
3200000000 -0.17052594 0.36079216 -0.77127498 -0.013639619 -0.75374371 -0.010528068 0.025149902 0.38818607
3220000000 -0.0067481194 0.35263047 -0.41414914 0.62541527 -0.41023573 0.60129684 0.23475552 0.38775587
3240000000 -0.069242686 0.038147293 0.32416239 0.70836616 0.30725279 0.70761544 0.12001269 0.13170682
3260000000 -0.33830321 0.05604589 0.78887868 0.066661559 0.78735119 0.06818483 -0.1012218 0.19301525
3280000000 -0.27833444 0.093028225 0.45795724 -0.65325254 0.44962624 -0.65204811 -0.10721479 0.14562993
3300000000 -0.36341411 -0.010712486 -0.34585035 -0.71423185 -0.34801441 -0.69867355 -0.32836607 0.11527663
3320000000 -0.32472789 0.12212394 -0.76605028 -0.071935184 -0.75077015 -0.071984857 -0.28799322 0.29592973
3340000000 -0.069609948 -0.040590078 -0.47292283 0.61585867 -0.4773483 0.61066091 -0.08627113 0.13090652
3360000000 -0.17533948 -0.3006053 0.29427463 0.7321282 0.30141994 0.73696893 -0.18461569 -0.085590772
3380000000 -0.23287974 -0.24237424 0.78794914 0.1156676 0.79016572 0.1038318 -0.19802141 -0.12189018
3400000000 -0.15884364 -0.30711815 0.48936442 -0.62492669 0.47952634 -0.62542808 -0.22613691 -0.2701982
3420000000 -0.21163197 -0.260014 -0.2837154 -0.7282449 -0.28188172 -0.72383237 -0.32152244 -0.20554318
3440000000 -0.0065186787 -0.13742629 -0.76693934 -0.13024113 -0.7703768 -0.13547647 -0.13560344 -0.10758068
3460000000 0.17947491 -0.28956613 -0.50282013 0.58829242 -0.50801051 0.59952301 0.034450922 -0.21359423
3480000000 0.15310189 -0.36807325 0.24852502 0.73511922 0.26183322 0.73454779 0.12617923 -0.27254236
3500000000 0.15176697 -0.35297325 0.7585963 0.1567076 0.75085706 0.14955381 0.20076144 -0.37885609
3520000000 0.10870109 -0.27577925 0.51986575 -0.57358599 0.52110416 -0.56338942 0.11610039 -0.38618293
3540000000 0.17901535 -0.099134229 -0.23688018 -0.73544258 -0.22897911 -0.74019939 0.13718298 -0.2104426
3560000000 0.31255394 -0.036434051 -0.74728751 -0.16181859 -0.75036263 -0.16540648 0.25070924 -0.1022418
3580000000 0.40758538 0.0029454259 -0.50539923 0.55514896 -0.5027945 0.55436385 0.37650064 0.0034540829
3600000000 0.4796114 -0.070894755 0.20329666 0.70598048 0.19760513 0.69622034 0.52511859 -0.038299493
3620000000 0.30099985 -0.1105613 0.72324318 0.19994451 0.71027815 0.20944263 0.42408675 -0.1205919
3640000000 0.2064179 0.13275899 0.53198051 -0.54019576 0.54021627 -0.53101403 0.30099571 0.033086516
3660000000 0.2897208 0.21517962 -0.2021682 -0.72536319 -0.19907336 -0.72757435 0.2829476 0.11686512
3680000000 0.23560604 0.30719751 -0.72334129 -0.16943064 -0.71774113 -0.16636854 0.16314927 0.2877939
3700000000 0.38254088 0.3860046 -0.49406236 0.49956551 -0.4873479 0.48937944 0.31301764 0.46531492
3720000000 0.3675079 0.14903668 0.1437503 0.70676476 0.13349544 0.69881523 0.38752079 0.28301296
3740000000 0.03244197 0.18753654 0.72176951 0.2238275 0.71737707 0.23099719 0.12284087 0.22613011
3760000000 0.055106122 0.36366415 0.54454517 -0.51552343 0.54464465 -0.51609457 0.074963026 0.32279721
3780000000 -0.041070208 0.28813022 -0.19624424 -0.73106104 -0.19847441 -0.72523576 -0.088789515 0.23235776
3800000000 -0.10573954 0.50289828 -0.68181503 -0.17667948 -0.677176 -0.17510743 -0.22848502 0.46382591
3820000000 0.14451829 0.43275261 -0.53742939 0.45058489 -0.53513891 0.44964987 0.016217509 0.4758096
3840000000 -0.011976714 0.097614229 0.12800686 0.75109655 0.12849548 0.75094897 -0.034034654 0.13662857
3860000000 -0.22356108 0.22534408 0.72378796 0.24096504 0.7290476 0.23836468 -0.2332709 0.16709216
3880000000 -0.14663781 0.14456005 0.57417059 -0.52050596 0.56933755 -0.52663207 -0.15080555 0.044155885
3900000000 -0.37749535 0.13227595 -0.18364806 -0.71779692 -0.18698327 -0.71849734 -0.41554663 -0.063278884
